スクリプトは 2021年11月18日 22時33分01秒
 に開始しました[?1034h[0;33m(sl-xu5-eth0-01)[0m si5345 [0;33m#[0m 

[0;33m(sl-xu5-eth0-01)[0m si5345 [0;33m#[0m 

[0;33m(sl-xu5-eth0-01)[0m si5345 [0;33m#[0m exitscript ~/logs/2021-11-18-22-26.log1-39.log[C[C[C[C[C[C[C[C[C[C[C[C[C[C[C[C[C[C[C[C[C[C[C[C[C[Cexit[Ki2cdump -y 4 0x68
No size specified (using byte-data access)
     0  1  2  3  4  5  6  7  8  9  a  b  c  d  e  f    0123456789abcdef
00: 00 0a 0a 0a 0a 01 00 00 00 00 00 08 00 00 00 00    .?????.....?....
10: 00 00 1f 0a 01 00 00 00 00 00 00 00 01 00 00 00    ..???.......?...
20: 00 00 00 0b 0b 02 00 00 00 00 00 0a 00 00 00 00    ...???.....?....
30: 00 00 00 00 00 00 00 00 00 00 00 00 00 00 00 00    ................
40: 00 00 00 00 00 00 00 00 00 00 00 00 00 00 00 00    ................
50: 00 00 00 00 00 00 00 00 00 00 00 00 00 00 00 00    ................
60: 00 00 00 00 00 00 00 00 00 00 00 00 00 00 00 00    ................
70: 00 00 00 00 00 00 00 00 00 00 00 00 00 00 00 00    ................
80: 00 00 00 00 00 00 00 00 00 00 00 00 00 00 00 00    ................
90: 00 00 00 00 00 00 00 00 00 00 00 00 00 00 00 00    ................
a0: 00 00 00 00 00 00 00 00 00 00 00 00 00 00 00 00    ................
b0: 00 00 00 00 00 00 00 00 00 00 00 00 00 00 00 00    ................
c0: 00 00 00 00 00 00 00 00 00 00 00 00 00 00 00 00    ................
d0: 00 00 00 00 00 00 00 00 00 00 00 00 00 00 00 00    ................
e0: 00 00 00 00 00 00 00 00 00 00 00 00 00 00 00 00    ................
f0: 00 00 00 00 00 00 00 00 00 00 00 00 00 00 0f 00    ..............?.

[0;33m(sl-xu5-eth0-01)[0m si5345 [0;33m#[0m i2cdump -y 4 0x68exit[Kscript ~/logs/2021-11-18-22-26.log1-39.log[C[C[C[C[C[C[C[C[C[C[C[C[C[C[C[C[C[C[C[C[C[C[C[C[C[Cexit[Ki2cdump -y 4 0x68exit[Kscript ~/logs/2021-11-18-21-39.log2-26.log[C[C[C[C[C[C[C[C[C[C[C[C[C[C[C[C[C[C[C[C[C[C[C[C[C[Cexit[Ki2cdump -y 4 0x68[K./si5345 --read --address=0x2
reg_addr = 0x0002,	value = 0x45

[0;33m(sl-xu5-eth0-01)[0m si5345 [0;33m#[0m ./si5345 --read --address=0x2[C[C[C[C[C[C[C[C[C[C[C[C[C[C[C[C[C[C[C[C[C[C[C[C[C[C[12Pi2cdump -y 4 0x68
No size specified (using byte-data access)
     0  1  2  3  4  5  6  7  8  9  a  b  c  d  e  f    0123456789abcdef
00: 05 00 45 53 01 03 00 00 00 00 00 68 c9 50 0f ff    ?.ES??.....h?P?.
10: 00 df ff 0f ff 00 00 00 00 00 df 00 00 00 00 00    .?.?......?.....
20: 00 00 00 0b 0b 00 00 00 00 00 00 02 00 00 00 00    ...??......?....
30: 00 00 00 00 00 00 00 00 00 00 00 00 00 00 00 05    ...............?
40: 01 00 00 00 00 00 00 00 00 00 00 00 00 00 00 00    ?...............
50: 00 00 00 00 00 00 00 00 00 00 00 00 00 00 00 00    ................
60: 00 00 00 00 00 00 00 00 00 00 00 00 00 00 00 00    ................
70: 00 00 00 00 00 00 00 00 00 00 00 00 00 00 00 00    ................
80: 00 00 00 00 00 00 00 00 00 00 00 00 00 00 00 00    ................
90: 00 00 00 a0 00 00 80 00 60 00 00 60 00 00 40 00    ...?..?.`..`..@.
a0: 20 00 00 00 00 00 00 00 00 00 00 00 00 00 00 00     ...............
b0: 00 00 00 00 00 00 00 01 00 16 00 c9 2a eb 5d 50    .......?.?.?*?]P
c0: 1e 00 00 00 00 00 00 00 00 00 00 00 00 00 00 00    ?...............
d0: 00 00 00 00 00 00 00 00 00 00 00 00 00 00 00 00    ................
e0: 00 00 03 00 00 00 00 00 00 00 00 00 00 00 00 00    ..?.............
f0: 00 00 00 00 00 00 0f df ff 0f 20 00 00 00 0f 00    ......??.? ...?.

[0;33m(sl-xu5-eth0-01)[0m si5345 [0;33m#[0m i2cdump -y 4 0x68./si5345 --read --address=0x2[C[C[C[C[C[C[C[C[C[C[C[C[C[C[C[C[C[C[C[C[C[C[C[C[C[C[12Pi2cdump -y 4 0x68./si5345 --read --address=0x2[C[C[C[C[C[C[C[C[C[C[C[C[C[C[C[C[C[C[C[C[C[C[C[C[C[C[12Pi2cdump -y 4 0x68[K[K[K[K[K[K[K[K[K[K[K[K[K[K[K[K[K./si5345 --preamble
Register 0x0B24: 0xC0 written
Register 0x0B25: 0x00 written
Register 0x0540: 0x01 written

[0;33m(sl-xu5-eth0-01)[0m si5345 [0;33m#[0m ./si5345 --preamble[K[K[K[K[K[K[K[Ka[Kwrite --da[K[Kaddress=0x2c --data=0xa 
i2c-write operation failed: No such device or address
Failed to write 0x0A at reg address 0x002C.

[0;33m(sl-xu5-eth0-01)[0m si5345 [0;33m#[0m ./si5345 --write --address=0x2c --data=0xa preamble[K
Register 0x0B24: 0xC0 written
Register 0x0B25: 0x00 written
Register 0x0540: 0x01 written

[0;33m(sl-xu5-eth0-01)[0m si5345 [0;33m#[0m ./si5345 --preamblewrite --address=0x2c --data=0xa 
Register 0x002C: 0x0A written
Wrote reg_addr = 0x002C,	value = 0x0A

[0;33m(sl-xu5-eth0-01)[0m si5345 [0;33m#[0m ./si5345 --write --address=0x2c --data=0xa preamble[K[K[K[K[K[K[K[Kostamble
Register 0x0514: 0x01 written
Register 0x001C: 0x01 written
Register 0x0540: 0x00 written
Register 0x0B24: 0xC3 written
Register 0x0B25: 0x02 written

[0;33m(sl-xu5-eth0-01)[0m si5345 [0;33m#[0m ./si5345 --postamblewrite --address=0x2c --data=0xa preamble[Kwrite --address=0x2c --data=0xa preamble[K[2Pi2cdump -y 4 0x68
No size specified (using byte-data access)
     0  1  2  3  4  5  6  7  8  9  a  b  c  d  e  f    0123456789abcdef
00: 05 00 45 53 01 03 00 00 00 00 00 68 c9 0a 0f ff    ?.ES??.....h???.
10: 00 df ff 0f ff 00 00 00 00 00 df 00 00 00 00 00    .?.?......?.....
20: 00 00 00 0b 0b 02 00 00 00 00 00 00 0a 00 00 00    ...???......?...
30: 00 00 00 00 00 00 00 00 00 00 00 00 00 00 00 05    ...............?
40: 00 00 00 00 00 00 00 00 00 00 00 00 00 00 00 00    ................
50: 00 00 00 00 00 00 00 00 00 00 00 00 00 00 00 00    ................
60: 00 00 00 00 00 00 00 00 00 00 00 00 00 00 00 00    ................
70: 00 00 00 00 00 00 00 00 00 00 00 00 00 00 00 00    ................
80: 00 00 00 00 00 00 00 00 00 00 00 00 00 00 00 00    ................
90: 00 00 00 a0 00 00 80 00 60 00 00 60 00 00 40 00    ...?..?.`..`..@.
a0: 20 00 00 00 00 00 00 00 00 00 00 00 00 00 00 00     ...............
b0: 00 00 00 00 00 00 00 01 00 09 00 c9 2a eb 5d 50    .......?.?.?*?]P
c0: 1e 00 00 00 00 00 00 00 00 00 00 00 00 00 00 00    ?...............
d0: 00 00 00 00 00 00 00 00 00 00 00 00 00 00 00 00    ................
e0: 00 00 03 00 00 00 00 00 00 00 00 00 00 00 00 00    ..?.............
f0: 00 00 00 00 00 00 0f df ff 0f 20 00 00 00 0f 00    ......??.? ...?.

[0;33m(sl-xu5-eth0-01)[0m si5345 [0;33m#[0m i2cdump -y 4 0x68./si5345 --postamblewrite --address=0x2c --data=0xa postamble[K[3Pi2cdump -y 4 0x68[K./[K[Kmake si5345
gcc -std=c99 -D _BSD_SOURCE -Wall -g -O0 si5345.c -o si5345

[0;33m(sl-xu5-eth0-01)[0m si5345 [0;33m#[0m ./si5345 --skip-13
This process takes time (ETA: 0.09 min).
You can't stop it by ctrl-c, because it may break your system.
Do you want to proceed? [y/n]
y
sh: 0 行: source: i2cdump.sh: ファイルが見つかりません
Register 0x0B24: 0xC0 written
Register 0x0B25: 0x00 written
Register 0x0540: 0x01 written
(003/525) Register 0x0006: 0x00 written
Register 0x0514: 0x01 written
Register 0x001C: 0x01 written
Register 0x0540: 0x00 written
Register 0x0B24: 0xC3 written
Register 0x0B25: 0x02 written
sh: 0 行: source: i2cdump.sh: ファイルが見つかりません
Register 0x0B24: 0xC0 written
Register 0x0B25: 0x00 written
Register 0x0540: 0x01 written
(004/525) Register 0x0007: 0x00 written
Register 0x0514: 0x01 written
Register 0x001C: 0x01 written
Register 0x0540: 0x00 written
Register 0x0B24: 0xC3 written
Register 0x0B25: 0x02 written
sh: 0 行: source: i2cdump.sh: ファイルが見つかりません
Register 0x0B24: 0xC0 written
Register 0x0B25: 0x00 written
Register 0x0540: 0x01 written
(005/525) Register 0x0008: 0x00 written
Register 0x0514: 0x01 written
Register 0x001C: 0x01 written
Register 0x0540: 0x00 written
Register 0x0B24: 0xC3 written
Register 0x0B25: 0x02 written
sh: 0 行: source: i2cdump.sh: ファイルが見つかりません
Register 0x0B24: 0xC0 written
Register 0x0B25: 0x00 written
Register 0x0540: 0x01 written
(006/525) Register 0x000B: 0x68 written
Register 0x0514: 0x01 written
Register 0x001C: 0x01 written
Register 0x0540: 0x00 written
Register 0x0B24: 0xC3 written
Register 0x0B25: 0x02 written
sh: 0 行: source: i2cdump.sh: ファイルが見つかりません
Register 0x0B24: 0xC0 written
Register 0x0B25: 0x00 written
Register 0x0540: 0x01 written
(007/525) Register 0x0016: 0x02 written
Register 0x0514: 0x01 written
Register 0x001C: 0x01 written
Register 0x0540: 0x00 written
Register 0x0B24: 0xC3 written
Register 0x0B25: 0x02 written
sh: 0 行: source: i2cdump.sh: ファイルが見つかりません
Register 0x0B24: 0xC0 written
Register 0x0B25: 0x00 written
Register 0x0540: 0x01 written
(008/525) Register 0x0017: 0xDC written
Register 0x0514: 0x01 written
Register 0x001C: 0x01 written
Register 0x0540: 0x00 written
Register 0x0B24: 0xC3 written
Register 0x0B25: 0x02 written
sh: 0 行: source: i2cdump.sh: ファイルが見つかりません
Register 0x0B24: 0xC0 written
Register 0x0B25: 0x00 written
Register 0x0540: 0x01 written
(009/525) Register 0x0018: 0xD5 written
Register 0x0514: 0x01 written
Register 0x001C: 0x01 written
Register 0x0540: 0x00 written
Register 0x0B24: 0xC3 written
Register 0x0B25: 0x02 written
sh: 0 行: source: i2cdump.sh: ファイルが見つかりません
Register 0x0B24: 0xC0 written
Register 0x0B25: 0x00 written
Register 0x0540: 0x01 written
DO NOT STOP THIS PROCESS BY CTRL-C!
(010/525) Register 0x0019: 0xDD written
Register 0x0514: 0x01 written
Register 0x001C: 0x01 written
Register 0x0540: 0x00 written
Register 0x0B24: 0xC3 written
Register 0x0B25: 0x02 written
sh: 0 行: source: i2cdump.sh: ファイルが見つかりません
Register 0x0B24: 0xC0 written
Register 0x0B25: 0x00 written
Register 0x0540: 0x01 written
(011/525) Register 0x001A: 0xDF written
Register 0x0514: 0x01 written
Register 0x001C: 0x01 written
Register 0x0540: 0x00 written
Register 0x0B24: 0xC3 written
Register 0x0B25: 0x02 written
sh: 0 行: source: i2cdump.sh: ファイルが見つかりません
Register 0x0B24: 0xC0 written
Register 0x0B25: 0x00 written
Register 0x0540: 0x01 written
(012/525) Register 0x002B: 0x02 written
Register 0x0514: 0x01 written
Register 0x001C: 0x01 written
Register 0x0540: 0x00 written
Register 0x0B24: 0xC3 written
Register 0x0B25: 0x02 written
sh: 0 行: source: i2cdump.sh: ファイルが見つかりません
Register 0x0B24: 0xC0 written
Register 0x0B25: 0x00 written
Register 0x0540: 0x01 written
sh: 0 行: source: i2cdump.sh: ファイルが見つかりません
Register 0x0B24: 0xC0 written
Register 0x0B25: 0x00 written
Register 0x0540: 0x01 written
(014/525) Register 0x002D: 0x44 written
Register 0x0514: 0x01 written
Register 0x001C: 0x01 written
Register 0x0540: 0x00 written
Register 0x0B24: 0xC3 written
Register 0x0B25: 0x02 written
sh: 0 行: source: i2cdump.sh: ファイルが見つかりません
Register 0x0B24: 0xC0 written
Register 0x0B25: 0x00 written
Register 0x0540: 0x01 written
(015/525) Register 0x002E: 0x00 written
Register 0x0514: 0x01 written
Register 0x001C: 0x01 written
Register 0x0540: 0x00 written
Register 0x0B24: 0xC3 written
Register 0x0B25: 0x02 written
sh: 0 行: source: i2cdump.sh: ファイルが見つかりません
Register 0x0B24: 0xC0 written
Register 0x0B25: 0x00 written
Register 0x0540: 0x01 written
^C

[0;33m(sl-xu5-eth0-01)[0m si5345 [0;33m#[0m ls
合計 116K
-rw-r--r-- 1 root root 7.4K 11月 17 22:11 Si5345-RevD-5345.okazaki-Registers.csv
-rw-r--r-- 1 root root   30 11月 18 22:32 i2cdump.sh
-rw-r--r-- 1 root root  12K 11月 18 22:32 si5345.c
-rw-r--r-- 1 root root  127 11月 18 22:32 test.c
-rw-r--r-- 1 root root  51K 11月 18 22:32 Si5345-RevD-5345.okazaki-Registers.h
-rw-r--r-- 1 root root  268 11月 18 22:32 Makefile
-rwxr-xr-x 1 root root  76K 11月 18 22:34 si5345*

[0;33m(sl-xu5-eth0-01)[0m si5345 [0;33m#[0m ls./si5345 --skip-13[7Pmake si5345
gcc -std=c99 -D _BSD_SOURCE -Wall -g -O0 si5345.c -o si5345

[0;33m(sl-xu5-eth0-01)[0m si5345 [0;33m#[0m make si5345ls[K./si5345 --skip-13[7Pmake si5345i2cdump -y 4 0x68
No size specified (using byte-data access)
     0  1  2  3  4  5  6  7  8  9  a  b  c  d  e  f    0123456789abcdef
00: 05 00 45 53 01 03 00 00 00 00 00 68 c9 00 0f ff    ?.ES??.....h?.?.
10: 00 df ff 0f ff 00 00 00 00 00 df 00 00 00 00 00    .?.?......?.....
20: 00 00 00 0b 0b 00 00 00 00 00 00 02 00 00 00 00    ...??......?....
30: 00 00 00 00 00 00 00 00 00 00 00 00 00 00 00 05    ...............?
40: 01 00 00 00 00 00 00 00 00 00 00 00 00 00 00 00    ?...............
50: 00 00 00 00 00 00 00 00 00 00 00 00 00 00 00 00    ................
60: 00 00 00 00 00 00 00 00 00 00 00 00 00 00 00 00    ................
70: 00 00 00 00 00 00 00 00 00 00 00 00 00 00 00 00    ................
80: 00 00 00 00 00 00 00 00 00 00 00 00 00 00 00 00    ................
90: 00 00 00 a0 00 00 80 00 60 00 00 60 00 00 40 00    ...?..?.`..`..@.
a0: 20 00 00 00 00 00 00 00 00 00 00 00 00 00 00 00     ...............
b0: 00 00 00 00 00 00 00 01 00 1c 00 c9 2a eb 5d 50    .......?.?.?*?]P
c0: 1e 00 00 00 00 00 00 00 00 00 00 00 00 00 00 00    ?...............
d0: 00 00 00 00 00 00 00 00 00 00 00 00 00 00 00 00    ................
e0: 00 00 03 00 00 00 00 00 00 00 00 00 00 00 00 00    ..?.............
f0: 00 00 00 00 00 00 0f df ff 0f 20 00 00 00 0f 00    ......??.? ...?.

[0;33m(sl-xu5-eth0-01)[0m si5345 [0;33m#[0m i2cdump -y 4 0x68[6Pmake si5345ls[K./si5345 --skip-13[7Pmake si5345i2cdump -y 4 0x68./si5345 --postamblewrite --address=0x2c --data=0xa preamble[K
Register 0x0B24: 0xC0 written
Register 0x0B25: 0x00 written
Register 0x0540: 0x01 written

[0;33m(sl-xu5-eth0-01)[0m si5345 [0;33m#[0m ./si5345 --preamble[2Pi2cdump -y 4 0x68[6Pmake si5345ls[K./si5345 --skip-13[7Pmake si5345i2cdump -y 4 0x68./si5345 --postamblewrite --address=0x2c --data=0xa 
i2c-write operation failed: No such device or address
Failed to write 0x0A at reg address 0x002C.

[0;33m(sl-xu5-eth0-01)[0m si5345 [0;33m#[0m ./si5345 --write --address=0x2c --data=0xa preamble[K[2Pi2cdump -y 4 0x68[6Pmake si5345ls[K./si5345 --skip-13[7Pmake si5345i2cdump -y 4 0x68./si5345 --postamble
Register 0x0514: 0x01 written
Register 0x001C: 0x01 written
Register 0x0540: 0x00 written
Register 0x0B24: 0xC3 written
Register 0x0B25: 0x02 written

[0;33m(sl-xu5-eth0-01)[0m si5345 [0;33m#[0m ./si5345 --postamblewrite --address=0x2c --data=0xa preamble[Kwrite --address=0x2c --data=0xa preamble[K[2Pi2cdump -y 4 0x68[6Pmake si5345i2cdump -y 4 0x68
No size specified (using byte-data access)
     0  1  2  3  4  5  6  7  8  9  a  b  c  d  e  f    0123456789abcdef
00: 05 00 45 53 01 03 00 00 00 00 00 68 c9 00 0f ff    ?.ES??.....h?.?.
10: 00 df ff 0f ff 00 00 00 00 00 df 00 00 00 00 00    .?.?......?.....
20: 00 00 00 0b 0b 02 00 00 00 00 00 00 00 00 00 00    ...???..........
30: 00 00 00 00 00 00 00 00 00 00 00 00 00 00 00 05    ...............?
40: 00 00 00 00 00 00 00 00 00 00 00 00 00 00 00 00    ................
50: 00 00 00 00 00 00 00 00 00 00 00 00 00 00 00 00    ................
60: 00 00 00 00 00 00 00 00 00 00 00 00 00 00 00 00    ................
70: 00 00 00 00 00 00 00 00 00 00 00 00 00 00 00 00    ................
80: 00 00 00 00 00 00 00 00 00 00 00 00 00 00 00 00    ................
90: 00 00 00 a0 00 00 80 00 60 00 00 60 00 00 40 00    ...?..?.`..`..@.
a0: 20 00 00 00 00 00 00 00 00 00 00 00 00 00 00 00     ...............
b0: 00 00 00 00 00 00 00 01 00 0b 00 c9 2a eb 5d 50    .......?.?.?*?]P
c0: 1e 00 00 00 00 00 00 00 00 00 00 00 00 00 00 00    ?...............
d0: 00 00 00 00 00 00 00 00 00 00 00 00 00 00 00 00    ................
e0: 00 00 03 00 00 00 00 00 00 00 00 00 00 00 00 00    ..?.............
f0: 00 00 00 00 00 00 0f df ff 0f 20 00 00 00 0f 00    ......??.? ...?.

[0;33m(sl-xu5-eth0-01)[0m si5345 [0;33m#[0m i2cdump -y 4 0x68./si5345 --postamblewrite --address=0x2c --data=0xa postamble[Kwrite --address=0x2c --data=0xa preamble[K[2Pi2cdump -y 4 0x68[6Pmake si5345ls[K./si5345 --skip-13[7Pmake si5345i2cdump -y 4 0x68./si5345 --postamblewrite --address=0x2c --data=0xa preamble[Kwrite --address=0x2c --data=0xa preamble[K[2Pi2cdump -y 4 0x68./si5345 --read --address=0x2
reg_addr = 0x0002,	value = 0x45

[0;33m(sl-xu5-eth0-01)[0m si5345 [0;33m#[0m ./si5345 --read --address=0x2[C[C[C[C[C[C[C[C[C[C[C[C[C[C[C[C[C[C[C[C[C[C[C[C[C[C[12Pi2cdump -y 4 0x68./si5345 --postamblewrite --address=0x2c --data=0xa preamble[K
Register 0x0B24: 0xC0 written
Register 0x0B25: 0x00 written
Register 0x0540: 0x01 written

[0;33m(sl-xu5-eth0-01)[0m si5345 [0;33m#[0m ./si5345 --preambleread --address=0x2[C[C[C[C[C[C[C[C[C[C[C[C[C[C[C[C[C[C[C[C[C[C[C[C[C[C[12Pi2cdump -y 4 0x68./si5345 --read --address=0x2
reg_addr = 0x0002,	value = 0x45

[0;33m(sl-xu5-eth0-01)[0m si5345 [0;33m#[0m ./si5345 --read --address=0x2[10Ppreambleread --address=0x2[C[C[C[C[C[C[C[C[C[C[C[C[C[C[C[C[C[C[C[C[C[C[C[C[C[C[K./si5345 --read --address=0x2[10Ppreambleread --address=0x2[C[C[C[C[C[C[C[C[C[C[C[C[C[C[C[C[C[C[C[C[C[C[C[C[C[C[12Pi2cdump -y 4 0x68./si5345 --postamble
Register 0x0514: 0x01 written
Register 0x001C: 0x01 written
Register 0x0540: 0x00 written
Register 0x0B24: 0xC3 written
Register 0x0B25: 0x02 written

[0;33m(sl-xu5-eth0-01)[0m si5345 [0;33m#[0m ./si5345 --postambleread --address=0x2[10Ppreambleread --address=0x2[C[C[C[C[C[C[C[C[C[C[C[C[C[C[C[C[C[C[C[C[C[C[C[C[C[C[12Pi2cdump -y 4 0x68./si5345 --postamble[3Pi2cdump -y 4 0x68
No size specified (using byte-data access)
     0  1  2  3  4  5  6  7  8  9  a  b  c  d  e  f    0123456789abcdef
00: 05 00 45 53 01 03 00 00 00 00 00 68 c9 00 0f ff    ?.ES??.....h?.?.
10: 00 df ff 0f ff 00 00 00 00 00 df 00 00 00 00 00    .?.?......?.....
20: 00 00 00 0b 0b 02 00 00 00 00 00 00 00 00 00 00    ...???..........
30: 00 00 00 00 00 00 00 00 00 00 00 00 00 00 00 05    ...............?
40: 00 00 00 00 00 00 00 00 00 00 00 00 00 00 00 00    ................
50: 00 00 00 00 00 00 00 00 00 00 00 00 00 00 00 00    ................
60: 00 00 00 00 00 00 00 00 00 00 00 00 00 00 00 00    ................
70: 00 00 00 00 00 00 00 00 00 00 00 00 00 00 00 00    ................
80: 00 00 00 00 00 00 00 00 00 00 00 00 00 00 00 00    ................
90: 00 00 00 a0 00 00 80 00 60 00 00 60 00 00 40 00    ...?..?.`..`..@.
a0: 20 00 00 00 00 00 00 00 00 00 00 00 00 00 00 00     ...............
b0: 00 00 00 00 00 00 00 01 00 06 00 c9 2a eb 5d 50    .......?.?.?*?]P
c0: 1e 00 00 00 00 00 00 00 00 00 00 00 00 00 00 00    ?...............
d0: 00 00 00 00 00 00 00 00 00 00 00 00 00 00 00 00    ................
e0: 00 00 03 00 00 00 00 00 00 00 00 00 00 00 00 00    ..?.............
f0: 00 00 00 00 00 00 0f df ff 0f 20 00 00 00 0f 00    ......??.? ...?.

[0;33m(sl-xu5-eth0-01)[0m si5345 [0;33m#[0m i2cdump -y 4 0x68./si5345 --postambleread --address=0x2[10Ppreambleread --address=0x2[C[C[C[C[C[C[C[C[C[C[C[C[C[C[C[C[C[C[C[C[C[C[C[C[C[C[12Pi2cdump -y 4 0x68./si5345 --postamble
Register 0x0514: 0x01 written
Register 0x001C: 0x01 written
Register 0x0540: 0x00 written
Register 0x0B24: 0xC3 written
Register 0x0B25: 0x02 written

[0;33m(sl-xu5-eth0-01)[0m si5345 [0;33m#[0m ./si5345 --postamble[3Pi2cdump -y 4 0x68./si5345 --postambleread --address=0x2[10Ppreambleread --address=0x2[C[C[C[C[C[C[C[C[C[C[C[C[C[C[C[C[C[C[C[C[C[C[C[C[C[C[12Pi2cdump -y 4 0x68./si5345 --postamblewrite --address=0x2c --data=0xa 
Register 0x002C: 0x0A written
Wrote reg_addr = 0x002C,	value = 0x0A

[0;33m(sl-xu5-eth0-01)[0m si5345 [0;33m#[0m ./si5345 --write --address=0x2c --data=0xa postamble[K[3Pi2cdump -y 4 0x68./si5345 --postambleread --address=0x2[10Ppreambleread --address=0x2[10Ppreambleread --address=0x2[9Ppostamble[3Pi2cdump -y 4 0x68./si5345 --postamble
Register 0x0514: 0x01 written
Register 0x001C: 0x01 written
Register 0x0540: 0x00 written
Register 0x0B24: 0xC3 written
Register 0x0B25: 0x02 written

[0;33m(sl-xu5-eth0-01)[0m si5345 [0;33m#[0m ./si5345 --postamblewrite --address=0x2c --data=0xa postamble[K[3Pi2cdump -y 4 0x68
No size specified (using byte-data access)
     0  1  2  3  4  5  6  7  8  9  a  b  c  d  e  f    0123456789abcdef
00: 05 00 45 53 01 03 00 00 00 00 00 68 c9 0a 0f ff    ?.ES??.....h???.
10: 00 df ff 0f ff 00 00 00 00 00 df 00 00 00 00 00    .?.?......?.....
20: 00 00 00 0b 0b 02 00 00 00 00 00 00 0a 00 00 00    ...???......?...
30: 00 00 00 00 00 00 00 00 00 00 00 00 00 00 00 05    ...............?
40: 00 00 00 00 00 00 00 00 00 00 00 00 00 00 00 00    ................
50: 00 00 00 00 00 00 00 00 00 00 00 00 00 00 00 00    ................
60: 00 00 00 00 00 00 00 00 00 00 00 00 00 00 00 00    ................
70: 00 00 00 00 00 00 00 00 00 00 00 00 00 00 00 00    ................
80: 00 00 00 00 00 00 00 00 00 00 00 00 00 00 00 00    ................
90: 00 00 00 a0 00 00 80 00 60 00 00 60 00 00 40 00    ...?..?.`..`..@.
a0: 20 00 00 00 00 00 00 00 00 00 00 00 00 00 00 00     ...............
b0: 00 00 00 00 00 00 00 01 00 05 00 c9 2a eb 5d 50    .......?.?.?*?]P
c0: 1e 00 00 00 00 00 00 00 00 00 00 00 00 00 00 00    ?...............
d0: 00 00 00 00 00 00 00 00 00 00 00 00 00 00 00 00    ................
e0: 00 00 03 00 00 00 00 00 00 00 00 00 00 00 00 00    ..?.............
f0: 00 00 00 00 00 00 0f df ff 0f 20 00 00 00 0f 00    ......??.? ...?.

[0;33m(sl-xu5-eth0-01)[0m si5345 [0;33m#[0m i2cdump -y 4 0x68./si5345 --postamblewrite --address=0x2c --data=0xa postamble[K[3Pi2cdump -y 4 0x68./si5345 --postambleread --address=0x2[10Ppreambleread --address=0x2[C[C[C[C[C[C[C[C[C[C[C[C[C[C[C[C[C[C[C[C[C[C[C[C[C[C[12Pi2cdump -y 4 0x68./si5345 --postamblewrite --address=0x2c --data=0xa preamble[K[2Pi2cdump -y 4 0x68[6Pmake si5345ls[Kmake si5345
make: `si5345' は更新済みです

[0;33m(sl-xu5-eth0-01)[0m si5345 [0;33m#[0m make si5345i2cdump -y 4 0x68./si5345 --postamblewrite --address=0x2c --data=0xa postamble[K[3Pi2cdump -y 4 0x68./si5345 --postambleread --address=0x2[10Ppreambleread --address=0x2[C[C[C[C[C[C[C[C[C[C[C[C[C[C[C[C[C[C[C[C[C[C[C[C[C[C[12Pi2cdump -y 4 0x68./si5345 --postamblewrite --address=0x2c --data=0xa preamble[K[2Pi2cdump -y 4 0x68[6Pmake si5345ls[K./si5345 --skip-13[7Pmake si5345./si5345 --skip-13
This process takes time (ETA: 0.09 min).
You can't stop it by ctrl-c, because it may break your system.
Do you want to proceed? [y/n]
y
