スクリプトは 2021年11月18日 16時25分05秒
 に開始しました[?1034h[0;33m(sl-xu5-eth0-01)[0m si5345 [0;33m#[0m script logs/2021-11-18-16-16.log[C[C[C[C[C[C[C[C[C[C[C[C[C[C[C[C[C[C[C[C[C[C[C[C[C[C./si5345 --read --address=0x0b24[C[C[C[C[C[C[C[C[C[C[C[C[C[C[C[C[C[C[C[C[C[C[C[C[C[Creboot[K./si5345 --write-allreboot[K./si5345 --read --address=0x0b24[C[C[C[C[C[C[C[C[C[C[C[C[C[C[C[C[C[C[C[C[C[C[C[C[C[Cscript logs/2021-11-18-16-16.log[C[C[C[C[C[C[C[C[C[C[C[C[C[C[C[C[C[C[C[C[C[C[C[C[C[C[Kscript logs/2021-11-18-16-16.log[C[C[C[C[C[C[C[C[C[C[C[C[C[C[C[C[C[C[C[C[C[C[C[C[C[C./si5345 --read --address=0x0b24[C[C[C[C[C[C[C[C[C[C[C[C[C[C[C[C[C[C[C[C[C[C[C[C[C[Creboot[K./si5345 --write-allread --address=0x002c[1Pb24[11Pwrite-allmake[K[2Pls./si5345 --read --address=0xb24[11Pwrite-all#OK[Knano ../../logs/2021-11-18-15-01.log [C[C[C[C[C[C[C[C[C[C[C[C[C[C[C[C[C[C[C[C[C[C[C[C[C[C[6P./si5345 --read --address=0xb24[C[C[C[C[C[C[C[C[C[C[C[C[C[C[C[C[C[C[C[C[C[C[C[C[C[Creboot[K./si5345 --read --address=0xb24-all[K --address=0xb24[C[C[C[C[C[C[C[C[C[C[C[C[C[C[C[C[C[C[C[C[C[C[C[C[C[Creboot[K./si5345 --read --address=0xb24-all[Kmake[K./si5345 --read-all --address=0x02b-all[Kmake[K./si5345 --read-allmake[K./si5345 --read-allmake[Kcd apps/si5345/exit[Kcd apps/si5345/make[K./si5345 --read-allmake[K./si5345 --read-allmake[K./si5345 --read-all --address=0x02b-all[Kmake[K./si5345 --read-all --address=0xb24[C[C[C[C[C[C[C[C[C[C[C[C[C[C[C[C[C[C[C[C[C[C[C[C[C[Creboot[K./si5345 --read --address=0xb24[C[C[C[C[C[C[C[C[C[C[C[C[C[C[C[C[C[C[C[C[C[C[C[C[C[Cnano ../../logs/2021-11-18-15-01.log [C[C[C[C[C[C[C[C[C[C[C[C[C[C[C[C[C[C[C[C[C[C[C[C[C[C#OK[K./si5345 --write-allread --address=0xb24[C[C[C[C[C[C[C[C[C[C[C[C[C[C[C[C[C[C[C[C[C[C[C[C[C[Cls[Kmake./si5345 --write-allread --address=0xb24002c[12Pwrite-allreboot[K./si5345 --read --address=0x0b24[C[C[C[C[C[C[C[C[C[C[C[C[C[C[C[C[C[C[C[C[C[C[C[C[C[Cscript logs/2021-11-18-16-16.log[C[C[C[C[C[C[C[C[C[C[C[C[C[C[C[C[C[C[C[C[C[C[C[C[C[C[Ki2cdump -y 4 0x68
No size specified (using byte-data access)
     0  1  2  3  4  5  6  7  8  9  a  b  c  d  e  f    0123456789abcdef
00: 05 00 45 53 01 03 10 07 04 00 00 68 c9 00 0f ff    ?.ES?????..h?.?.
10: 00 df ff 2f ff 03 02 dc ff dd df f6 00 00 00 00    .?./.???.???....
20: 00 0f 00 fe 0b 00 00 00 00 00 00 02 00 00 00 00    .?.??......?....
30: 00 00 00 00 00 00 00 00 00 00 00 00 00 00 00 00    ................
40: 04 00 00 00 00 0c 00 00 00 00 00 00 00 00 00 00    ?....?..........
50: 0f 00 00 00 00 00 00 00 00 00 00 00 00 00 00 00    ?...............
60: 00 00 00 00 00 00 00 00 00 00 00 00 00 00 00 00    ................
70: 00 00 00 00 00 00 00 00 00 00 00 00 00 00 00 00    ................
80: 00 00 00 00 00 00 00 00 00 00 00 00 00 00 00 00    ................
90: 00 00 00 00 00 00 00 00 00 00 00 00 00 00 00 00    ................
a0: 00 00 00 00 00 00 00 00 00 00 00 00 00 00 00 00    ................
b0: 00 00 00 00 00 00 00 01 00 00 35 0a 0c 00 00 00    .......?..5??...
c0: 00 00 00 00 00 00 00 00 00 00 00 00 00 00 00 00    ................
d0: 00 00 00 00 00 00 00 00 00 00 00 00 00 00 00 00    ...............