ã‚¹ã‚¯ãƒªãƒ—ãƒˆã¯ 2021å¹´11æœˆ18æ—¥ 21æ™‚39åˆ†51ç§’
 ã«é–‹å§‹ã—ã¾ã—ãŸ[?1034h[0;33m(sl-xu5-eth0-01)[0m ~ [0;33m#[0m 

[0;33m(sl-xu5-eth0-01)[0m ~ [0;33m#[0m iscript ~/logs/2021-11-18-21-04.log[C[C[C[C[C[C[C[C[C[C[C[C[C[C[C[C[C[C[C[C[Creboot[Ki2cdump -y 4 0x68etect -y -r 3ump -y 4 0x68
No size specified (using byte-data access)
     0  1  2  3  4  5  6  7  8  9  a  b  c  d  e  f    0123456789abcdef
00: 05 00 45 53 01 03 10 07 04 00 00 68 c9 00 0f ff    ?.ES?????..h?.?.
10: 00 df ff 2f ff 03 02 dc ff dd df f6 00 00 00 00    .?./.???.???....
20: 00 0f 00 fe 0b 00 00 00 00 00 00 02 00 00 00 00    .?.??......?....
30: 00 00 00 00 00 00 00 00 00 00 00 00 00 00 00 00    ................
40: 04 00 00 00 00 0c 00 00 00 00 00 00 00 00 00 00    ?....?..........
50: 0f 00 00 00 00 00 00 00 00 00 00 00 00 00 00 00    ?...............
60: 00 00 00 00 00 00 00 00 00 00 00 00 00 00 00 00    ................
70: 00 00 00 00 00 00 00 00 00 00 00 00 00 00 00 00    ................
80: 00 00 00 00 00 00 00 00 00 00 00 00 00 00 00 00    ................
90: 00 00 00 00 00 00 00 00 00 00 00 00 00 00 00 00    ................
a0: 00 00 00 00 00 00 00 00 00 00 00 00 00 00 00 00    ................
b0: 00 00 00 00 00 00 00 01 00 6d 2e 26 05 00 00 00    .......?.m.&?...
c0: 00 00 00 00 00 00 00 00 00 00 00 00 00 00 00 00    ................
d0: 00 00 00 00 00 00 00 00 00 00 00 00 00 00 00 00    ................
e0: 00 00 03 00 00 01 00 00 00 00 00 00 00 00 00 00    ..?..?..........
f0: 00 00 00 00 00 00 0d 03 00 22 20 00 00 00 0f 00    ......??." ...?.

[0;33m(sl-xu5-eth0-01)[0m ~ [0;33m#[0m i2cdump -y 4 0x68script ~/logs/2021-11-18-21-04.log[C[C[C[C[C[C[C[C[C[C[C[C[C[C[C[C[C[C[C[C[Creboot[Ki2cdump -y 4 0x68etect -y -r 3ump -y 4 0x68[11Prebootscript ~/logs/2021-11-18-21-04.log[C[C[C[C[C[C[C[C[C[C[C[C[C[C[C[C[C[C[C[C[C[17Pi2cdump -y 4 0x68[Kcd apps/si5345/
/root/apps/si5345

[0;33m(sl-xu5-eth0-01)[0m si5345 [0;33m#[0m ls
åˆè¨ˆ 112K
-rw-r--r-- 1 root root 7.4K 11æœˆ 17 22:11 Si5345-RevD-5345.okazaki-Registers.csv
-rw-r--r-- 1 root root  12K 11æœˆ 18 21:36 si5345.c
-rw-r--r-- 1 root root  127 11æœˆ 18 21:36 test.c
-rw-r--r-- 1 root root  51K 11æœˆ 18 21:36 Si5345-RevD-5345.okazaki-Registers.h
-rw-r--r-- 1 root root  268 11æœˆ 18 21:36 Makefile
-rwxr-xr-x 1 root root  76K 11æœˆ 18 21:36 si5345*

[0;33m(sl-xu5-eth0-01)[0m si5345 [0;33m#[0m lscd apps/si5345/i2cdump -y 4 0x68script ~/logs/2021-11-18-21-04.log[C[C[C[C[C[C[C[C[C[C[C[C[C[C[C[C[C[C[C[C[C[C[C[C[C[Creboot[Ki2cdump -y 4 0x68etect -y -r 387654l[K[Kdmesg | grep -e i2c -e I2C [16Pi2cdetect -ly -r 456783ump -y 4 0x68[11Prebootscript ~/logs/2021-11-18-21-04.log[C[C[C[C[C[C[C[C[C[C[C[C[C[C[C[C[C[C[C[C[C[C[C[C[C[C[17Pi2cdump -y 4 0x68[2Pcd apps/si5345/ls[K[Kmake si5345
make: `si5345' ã¯æ›´æ–°æ¸ˆã¿ã§ã™

[0;33m(sl-xu5-eth0-01)[0m si5345 [0;33m#[0m ./si5345 --w[1Pmake si5345ls[Kcd apps/si5345/i2cdump -y 4 0x68script ~/logs/2021-11-18-21-04.log[C[C[C[C[C[C[C[C[C[C[C[C[C[C[C[C[C[C[C[C[C[C[C[C[C[Creboot[Ki2cdump -y 4 0x68etect -y -r 38783ump -y 4 0x68[11Prebootscript ~/logs/2021-11-18-21-04.log[C[C[C[C[C[C[C[C[C[C[C[C[C[C[C[C[C[C[C[C[C[C[C[C[C[C[17Pi2cdump -y 4 0x68[2Pcd apps/si5345/ls[Kmake si5345./si5345 --w[Kpreamble
Register 0x0B24: 0xC0 written
Register 0x0B25: 0x00 written
Register 0x0540: 0x01 written

[0;33m(sl-xu5-eth0-01)[0m si5345 [0;33m#[0m ./si5345 --preamble[8Pmake si5345ls[Kmake si5345ls[Kmake si5345./si5345 --preamble[K[K[K[K[K[K[K[Kwrite --address=0x002c --data=0xa 
i2c-write operation failed: No such device or address
Failed to write 0x0A at reg address 0x002C.

[0;33m(sl-xu5-eth0-01)[0m si5345 [0;33m#[0m ./si5345 --write --address=0x002c --data=0xa 
Register 0x002C: 0x0A written
Wrote reg_addr = 0x002C,	value = 0x0A

[0;33m(sl-xu5-eth0-01)[0m si5345 [0;33m#[0m ./si5345 --write --address=0x002c --data=0xa [K[K[K[K[K[K[K[K[K[K[K[K[K[K[K[K[K[K[K[K[K[K[K[K[K[K[K[K[K[K[K[K[K[Kskip-13
This process takes time (ETA: 0.09 min).
You can't stop it by ctrl-c, because it may break your system.
Do you want to proceed? [y/n]
y
(003/525) Register 0x0006: 0x00 written
(004/525) Register 0x0007: 0x00 written
(005/525) Register 0x0008: 0x00 written
(006/525) Register 0x000B: 0x68 written
(007/525) Register 0x0016: 0x02 written
(008/525) Register 0x0017: 0xDC written
(009/525) Register 0x0018: 0xD5 written
DO NOT STOP THIS PROCESS BY CTRL-C!
(010/525) Register 0x0019: 0xDD written
(011/525) Register 0x001A: 0xDF written
(012/525) Register 0x002B: 0x02 written
(014/525) Register 0x002D: 0x44 written
(015/525) Register 0x002E: 0x00 written
(016/525) Register 0x002F: 0x00 written
(017/525) Register 0x0030: 0x44 written
(018/525) Register 0x0031: 0x00 written
(019/525) Register 0x0032: 0x00 written
DO NOT STOP THIS PROCESS BY CTRL-C!
(020/525) Register 0x0033: 0x00 written
(021/525) Register 0x0034: 0x44 written
(022/525) Register 0x0035: 0x00 written
(023/525) Register 0x0036: 0x00 written
(024/525) Register 0x0037: 0x00 written
(025/525) Register 0x0038: 0x44 written
(026/525) Register 0x0039: 0x00 written
(027/525) Register 0x003A: 0x00 written
(028/525) Register 0x003B: 0x00 written
(029/525) Register 0x003C: 0x44 written
DO NOT STOP THIS PROCESS BY CTRL-C!
(030/525) Register 0x003D: 0x00 written
(031/525) Register 0x003F: 0x22 written
(032/525) Register 0x0040: 0x04 written
(033/525) Register 0x0041: 0x00 written
(034/525) Register 0x0042: 0x0C written
(035/525) Register 0x0043: 0x00 written
(036/525) Register 0x0044: 0x0C written
(037/525) Register 0x0045: 0x0C written
(038/525) Register 0x0046: 0x00 written
(039/525) Register 0x0047: 0x32 written
DO NOT STOP THIS PROCESS BY CTRL-C!
(040/525) Register 0x0048: 0x00 written
(041/525) Register 0x0049: 0x00 written
(042/525) Register 0x004A: 0x00 written
(043/525) Register 0x004B: 0x32 written
(044/525) Register 0x004C: 0x00 written
(045/525) Register 0x004D: 0x00 written
(046/525) Register 0x004E: 0x50 written
(047/525) Register 0x004F: 0x00 written
(048/525) Register 0x0050: 0x07 written
(049/525) Register 0x0051: 0x00 written
DO NOT STOP THIS PROCESS BY CTRL-C!
(050/525) Register 0x0052: 0x03 written
(051/525) Register 0x0053: 0x00 written
(052/525) Register 0x0054: 0x00 written
(053/525) Register 0x0055: 0x00 written
(054/525) Register 0x0056: 0x03 written
(055/525) Register 0x0057: 0x00 written
(056/525) Register 0x0058: 0x00 written
(057/525) Register 0x0059: 0x04 written
(058/525) Register 0x005A: 0x00 written
(059/525) Register 0x005B: 0x00 written
DO NOT STOP THIS PROCESS BY CTRL-C!
(060/525) Register 0x005C: 0x00 written
(061/525) Register 0x005D: 0x00 written
(062/525) Register 0x005E: 0x31 written
(063/525) Register 0x005F: 0xC1 written
(064/525) Register 0x0060: 0xD5 written
(065/525) Register 0x0061: 0x00 written
(066/525) Register 0x0062: 0x00 written
(067/525) Register 0x0063: 0x00 written
(068/525) Register 0x0064: 0x00 written
(069/525) Register 0x0065: 0x00 written
DO NOT STOP THIS PROCESS BY CTRL-C!
(070/525) Register 0x0066: 0x00 written
(071/525) Register 0x0067: 0x00 written
(072/525) Register 0x0068: 0x00 written
(073/525) Register 0x0069: 0x00 written
(074/525) Register 0x0092: 0x02 written
(075/525) Register 0x0093: 0xA0 written
(076/525) Register 0x0095: 0x00 written
(077/525) Register 0x0096: 0x80 written
(078/525) Register 0x0098: 0x60 written
(079/525) Register 0x009A: 0x02 written
DO NOT STOP THIS PROCESS BY CTRL-C!
(080/525) Register 0x009B: 0x60 written
(081/525) Register 0x009D: 0x00 written
(082/525) Register 0x009E: 0x40 written
(083/525) Register 0x00A0: 0x20 written
(084/525) Register 0x00A2: 0x00 written
(085/525) Register 0x00A9: 0x08 written
(086/525) Register 0x00AA: 0x0C written
(087/525) Register 0x00AB: 0x00 written
(088/525) Register 0x00AC: 0x00 written
(089/525) Register 0x00E5: 0x00 written
DO NOT STOP THIS PROCESS BY CTRL-C!
(090/525) Register 0x00EA: 0x01 written
(091/525) Register 0x00EB: 0x0C written
(092/525) Register 0x00EC: 0x00 written
(093/525) Register 0x00ED: 0x00 written
(094/525) Register 0x0102: 0x01 written
(095/525) Register 0x0108: 0x01 written
(096/525) Register 0x0109: 0x09 written
(097/525) Register 0x010A: 0x3B written
(098/525) Register 0x010B: 0x28 written
(099/525) Register 0x010D: 0x06 written
DO NOT STOP THIS PROCESS BY CTRL-C!
(100/525) Register 0x010E: 0x09 written
(101/525) Register 0x010F: 0x3E written
(102/525) Register 0x0110: 0x18 written
(103/525) Register 0x0112: 0x01 written
(104/525) Register 0x0113: 0x09 written
(105/525) Register 0x0114: 0x3B written
(106/525) Register 0x0115: 0x28 written
(107/525) Register 0x0117: 0x06 written
(108/525) Register 0x0118: 0x09 written
(109/525) Register 0x0119: 0x3E written
DO NOT STOP THIS PROCESS BY CTRL-C!
(110/525) Register 0x011A: 0x18 written
(111/525) Register 0x011C: 0x01 written
(112/525) Register 0x011D: 0x09 written
(113/525) Register 0x011E: 0x3B written
(114/525) Register 0x011F: 0x28 written
(115/525) Register 0x0121: 0x01 written
(116/525) Register 0x0122: 0x09 written
(117/525) Register 0x0123: 0x3B written
(118/525) Register 0x0124: 0x28 written
(119/525) Register 0x0126: 0x01 written
DO NOT STOP THIS PROCESS BY CTRL-C!
(120/525) Register 0x0127: 0x09 written
(121/525) Register 0x0128: 0x3B written
(122/525) Register 0x0129: 0x28 written
(123/525) Register 0x012B: 0x01 written
(124/525) Register 0x012C: 0x09 written
(125/525) Register 0x012D: 0x3B written
(126/525) Register 0x012E: 0x28 written
(127/525) Register 0x0130: 0x01 written
(128/525) Register 0x0131: 0x09 written
(129/525) Register 0x0132: 0x3B written
DO NOT STOP THIS PROCESS BY CTRL-C!
(130/525) Register 0x0133: 0x28 written
(131/525) Register 0x013A: 0x02 written
(132/525) Register 0x013B: 0x09 written
(133/525) Register 0x013C: 0x3B written
(134/525) Register 0x013D: 0x28 written
(135/525) Register 0x013F: 0x00 written
(136/525) Register 0x0140: 0x08 written
(137/525) Register 0x0141: 0x40 written
(138/525) Register 0x0142: 0xFF written
(139/525) Register 0x0206: 0x00 written
DO NOT STOP THIS PROCESS BY CTRL-C!
(140/525) Register 0x0208: 0x00 written
(141/525) Register 0x0209: 0x00 written
(142/525) Register 0x020A: 0x00 written
(143/525) Register 0x020B: 0x00 written
(144/525) Register 0x020C: 0x00 written
(145/525) Register 0x020D: 0x00 written
(146/525) Register 0x020E: 0x00 written
(147/525) Register 0x020F: 0x00 written
(148/525) Register 0x0210: 0x00 written
(149/525) Register 0x0211: 0x00 written
DO NOT STOP THIS PROCESS BY CTRL-C!
(150/525) Register 0x0212: 0x19 written
(151/525) Register 0x0213: 0x00 written
(152/525) Register 0x0214: 0x00 written
(153/525) Register 0x0215: 0x00 written
(154/525) Register 0x0216: 0x00 written
(155/525) Register 0x0217: 0x00 written
(156/525) Register 0x0218: 0x01 written
(157/525) Register 0x0219: 0x00 written
(158/525) Register 0x021A: 0x00 written
(159/525) Register 0x021B: 0x00 written
DO NOT STOP THIS PROCESS BY CTRL-C!
(160/525) Register 0x021C: 0x00 written
(161/525) Register 0x021D: 0x00 written
(162/525) Register 0x021E: 0x00 written
(163/525) Register 0x021F: 0x00 written
(164/525) Register 0x0220: 0x00 written
(165/525) Register 0x0221: 0x00 written
(166/525) Register 0x0222: 0x00 written
(167/525) Register 0x0223: 0x00 written
(168/525) Register 0x0224: 0x00 written
(169/525) Register 0x0225: 0x00 written
DO NOT STOP THIS PROCESS BY CTRL-C!
(170/525) Register 0x0226: 0x19 written
(171/525) Register 0x0227: 0x00 written
(172/525) Register 0x0228: 0x00 written
(173/525) Register 0x0229: 0x00 written
(174/525) Register 0x022A: 0x00 written
(175/525) Register 0x022B: 0x00 written
(176/525) Register 0x022C: 0x01 written
(177/525) Register 0x022D: 0x00 written
(178/525) Register 0x022E: 0x00 written
(179/525) Register 0x022F: 0x00 written
DO NOT STOP THIS PROCESS BY CTRL-C!
(180/525) Register 0x0231: 0x0B written
(181/525) Register 0x0232: 0x0B written
(182/525) Register 0x0233: 0x0B written
(183/525) Register 0x0234: 0x0B written
(184/525) Register 0x0235: 0x00 written
(185/525) Register 0x0236: 0x00 written
(186/525) Register 0x0237: 0x40 written
(187/525) Register 0x0238: 0xFA written
(188/525) Register 0x0239: 0x11 written
(189/525) Register 0x023A: 0x01 written
DO NOT STOP THIS PROCESS BY CTRL-C!
(190/525) Register 0x023B: 0x00 written
(191/525) Register 0x023C: 0x00 written
(192/525) Register 0x023D: 0x00 written
(193/525) Register 0x023E: 0xFA written
(194/525) Register 0x024A: 0x00 written
(195/525) Register 0x024B: 0x00 written
(196/525) Register 0x024C: 0x00 written
(197/525) Register 0x024D: 0x00 written
(198/525) Register 0x024E: 0x00 written
(199/525) Register 0x024F: 0x00 written
DO NOT STOP THIS PROCESS BY CTRL-C!
(200/525) Register 0x0250: 0x00 written
(201/525) Register 0x0251: 0x00 written
(202/525) Register 0x0252: 0x00 written
(203/525) Register 0x0253: 0x00 written
(204/525) Register 0x0254: 0x00 written
(205/525) Register 0x0255: 0x00 written
(206/525) Register 0x0256: 0x00 written
(207/525) Register 0x0257: 0x00 written
(208/525) Register 0x0258: 0x00 written
(209/525) Register 0x0259: 0x00 written
DO NOT STOP THIS PROCESS BY CTRL-C!
(210/525) Register 0x025A: 0x00 written
(211/525) Register 0x025B: 0x00 written
(212/525) Register 0x025C: 0x00 written
(213/525) Register 0x025D: 0x00 written
(214/525) Register 0x025E: 0x00 written
(215/525) Register 0x025F: 0x00 written
(216/525) Register 0x0260: 0x00 written
(217/525) Register 0x0261: 0x00 written
(218/525) Register 0x0262: 0x00 written
(219/525) Register 0x0263: 0x00 written
DO NOT STOP THIS PROCESS BY CTRL-C!
(220/525) Register 0x0264: 0x00 written
(221/525) Register 0x0268: 0x05 written
(222/525) Register 0x0269: 0x00 written
(223/525) Register 0x026A: 0x00 written
(224/525) Register 0x026B: 0x35 written
(225/525) Register 0x026C: 0x33 written
(226/525) Register 0x026D: 0x34 written
(227/525) Register 0x026E: 0x35 written
(228/525) Register 0x026F: 0x00 written
(229/525) Register 0x0270: 0x00 written
DO NOT STOP THIS PROCESS BY CTRL-C!
(230/525) Register 0x0271: 0x00 written
(231/525) Register 0x0272: 0x00 written
(232/525) Register 0x028A: 0x00 written
(233/525) Register 0x028B: 0x00 written
(234/525) Register 0x028C: 0x00 written
(235/525) Register 0x028D: 0x00 written
(236/525) Register 0x028E: 0x00 written
(237/525) Register 0x028F: 0x00 written
(238/525) Register 0x0290: 0x00 written
(239/525) Register 0x0291: 0x00 written
DO NOT STOP THIS PROCESS BY CTRL-C!
(240/525) Register 0x0294: 0x80 written
(241/525) Register 0x0296: 0x00 written
(242/525) Register 0x0297: 0x02 written
(243/525) Register 0x0299: 0x02 written
(244/525) Register 0x029D: 0x70 written
(245/525) Register 0x029E: 0x00 written
(246/525) Register 0x029F: 0x00 written
(247/525) Register 0x02A9: 0x99 written
(248/525) Register 0x02AA: 0x00 written
(249/525) Register 0x02AB: 0x00 written
DO NOT STOP THIS PROCESS BY CTRL-C!
(250/525) Register 0x02B7: 0xFF written
(251/525) Register 0x0302: 0x00 written
(252/525) Register 0x0303: 0x00 written
(253/525) Register 0x0304: 0x00 written
(254/525) Register 0x0305: 0x00 written
(255/525) Register 0x0306: 0x0E written
(256/525) Register 0x0307: 0x00 written
(257/525) Register 0x0308: 0x00 written
(258/525) Register 0x0309: 0x00 written
(259/525) Register 0x030A: 0x00 written
DO NOT STOP THIS PROCESS BY CTRL-C!
(260/525) Register 0x030B: 0x80 written
(261/525) Register 0x030C: 0x00 written
(262/525) Register 0x030D: 0x00 written
(263/525) Register 0x030E: 0x00 written
(264/525) Register 0x030F: 0x00 written
(265/525) Register 0x0310: 0x00 written
(266/525) Register 0x0311: 0x00 written
(267/525) Register 0x0312: 0x00 written
(268/525) Register 0x0313: 0x00 written
(269/525) Register 0x0314: 0x00 written
DO NOT STOP THIS PROCESS BY CTRL-C!
(270/525) Register 0x0315: 0x00 written
(271/525) Register 0x0316: 0x00 written
(272/525) Register 0x0317: 0x00 written
(273/525) Register 0x0318: 0x00 written
(274/525) Register 0x0319: 0x00 written
(275/525) Register 0x031A: 0x00 written
(276/525) Register 0x031B: 0x00 written
(277/525) Register 0x031C: 0x00 written
(278/525) Register 0x031D: 0x00 written
(279/525) Register 0x031E: 0x00 written
DO NOT STOP THIS PROCESS BY CTRL-C!
(280/525) Register 0x031F: 0x00 written
(281/525) Register 0x0320: 0x00 written
(282/525) Register 0x0321: 0x00 written
(283/525) Register 0x0322: 0x00 written
(284/525) Register 0x0323: 0x00 written
(285/525) Register 0x0324: 0x00 written
(286/525) Register 0x0325: 0x00 written
(287/525) Register 0x0326: 0x00 written
(288/525) Register 0x0327: 0x00 written
(289/525) Register 0x0328: 0x00 written
DO NOT STOP THIS PROCESS BY CTRL-C!
(290/525) Register 0x0329: 0x00 written
(291/525) Register 0x032A: 0x00 written
(292/525) Register 0x032B: 0x00 written
(293/525) Register 0x032C: 0x00 written
(294/525) Register 0x032D: 0x00 written
(295/525) Register 0x032E: 0x00 written
(296/525) Register 0x032F: 0x00 written
(297/525) Register 0x0330: 0x00 written
(298/525) Register 0x0331: 0x00 written
(299/525) Register 0x0332: 0x00 written
DO NOT STOP THIS PROCESS BY CTRL-C!
(300/525) Register 0x0333: 0x00 written
(301/525) Register 0x0334: 0x00 written
(302/525) Register 0x0335: 0x00 written
(303/525) Register 0x0336: 0x00 written
(304/525) Register 0x0337: 0x00 written
(305/525) Register 0x0338: 0x00 written
(306/525) Register 0x0339: 0x1F written
(307/525) Register 0x033B: 0x00 written
(308/525) Register 0x033C: 0x00 written
(309/525) Register 0x033D: 0x00 written
DO NOT STOP THIS PROCESS BY CTRL-C!
(310/525) Register 0x033E: 0x00 written
(311/525) Register 0x033F: 0x00 written
(312/525) Register 0x0340: 0x00 written
(313/525) Register 0x0341: 0x00 written
(314/525) Register 0x0342: 0x00 written
(315/525) Register 0x0343: 0x00 written
(316/525) Register 0x0344: 0x00 written
(317/525) Register 0x0345: 0x00 written
(318/525) Register 0x0346: 0x00 written
(319/525) Register 0x0347: 0x00 written
DO NOT STOP THIS PROCESS BY CTRL-C!
(320/525) Register 0x0348: 0x00 written
(321/525) Register 0x0349: 0x00 written
(322/525) Register 0x034A: 0x00 written
(323/525) Register 0x034B: 0x00 written
(324/525) Register 0x034C: 0x00 written
(325/525) Register 0x034D: 0x00 written
(326/525) Register 0x034E: 0x00 written
(327/525) Register 0x034F: 0x00 written
(328/525) Register 0x0350: 0x00 written
(329/525) Register 0x0351: 0x00 written
DO NOT STOP THIS PROCESS BY CTRL-C!
(330/525) Register 0x0352: 0x00 written
(331/525) Register 0x0353: 0x00 written
(332/525) Register 0x0354: 0x00 written
(333/525) Register 0x0355: 0x00 written
(334/525) Register 0x0356: 0x00 written
(335/525) Register 0x0357: 0x00 written
(336/525) Register 0x0358: 0x00 written
(337/525) Register 0x0359: 0x00 written
(338/525) Register 0x035A: 0x00 written
(339/525) Register 0x035B: 0x00 written
DO NOT STOP THIS PROCESS BY CTRL-C!
(340/525) Register 0x035C: 0x00 written
(341/525) Register 0x035D: 0x00 written
(342/525) Register 0x035E: 0x00 written
(343/525) Register 0x035F: 0x00 written
(344/525) Register 0x0360: 0x00 written
(345/525) Register 0x0361: 0x00 written
(346/525) Register 0x0362: 0x00 written
(347/525) Register 0x0487: 0x03 written
(348/525) Register 0x0508: 0x14 written
(349/525) Register 0x0509: 0x29 written
DO NOT STOP THIS PROCESS BY CTRL-C!
(350/525) Register 0x050A: 0x06 written
(351/525) Register 0x050B: 0x05 written
(352/525) Register 0x050C: 0x3F written
(353/525) Register 0x050D: 0x0F written
(354/525) Register 0x050E: 0x14 written
(355/525) Register 0x050F: 0x2B written
(356/525) Register 0x0510: 0x06 written
(357/525) Register 0x0511: 0x05 written
(358/525) Register 0x0512: 0x3F written
(359/525) Register 0x0513: 0x0F written
DO NOT STOP THIS PROCESS BY CTRL-C!
(360/525) Register 0x0515: 0x00 written
(361/525) Register 0x0516: 0x00 written
(362/525) Register 0x0517: 0x00 written
(363/525) Register 0x0518: 0x00 written
(364/525) Register 0x0519: 0x48 written
(365/525) Register 0x051A: 0x03 written
(366/525) Register 0x051B: 0x00 written
(367/525) Register 0x051C: 0x00 written
(368/525) Register 0x051D: 0x00 written
(369/525) Register 0x051E: 0x00 written
DO NOT STOP THIS PROCESS BY CTRL-C!
(370/525) Register 0x051F: 0x80 written
(371/525) Register 0x0521: 0x2B written
(372/525) Register 0x052A: 0x03 written
(373/525) Register 0x052B: 0x01 written
(374/525) Register 0x052C: 0x87 written
(375/525) Register 0x052D: 0x03 written
(376/525) Register 0x052E: 0x19 written
(377/525) Register 0x052F: 0x19 written
(378/525) Register 0x0531: 0x00 written
(379/525) Register 0x0532: 0x10 written
DO NOT STOP THIS PROCESS BY CTRL-C!
(380/525) Register 0x0533: 0x04 written
(381/525) Register 0x0534: 0x00 written
(382/525) Register 0x0535: 0x00 written
(383/525) Register 0x0536: 0x00 written
(384/525) Register 0x0537: 0x00 written
(385/525) Register 0x0538: 0x00 written
(386/525) Register 0x0539: 0x00 written
(387/525) Register 0x053A: 0x02 written
(388/525) Register 0x053B: 0x03 written
(389/525) Register 0x053C: 0x00 written
DO NOT STOP THIS PROCESS BY CTRL-C!
(390/525) Register 0x053D: 0x0B written
(391/525) Register 0x053E: 0x06 written
(392/525) Register 0x0589: 0x0E written
(393/525) Register 0x058A: 0x00 written
(394/525) Register 0x059B: 0xF8 written
(395/525) Register 0x059D: 0x14 written
(396/525) Register 0x059E: 0x2B written
(397/525) Register 0x059F: 0x06 written
(398/525) Register 0x05A0: 0x05 written
(399/525) Register 0x05A1: 0x3F written
DO NOT STOP THIS PROCESS BY CTRL-C!
(400/525) Register 0x05A2: 0x0F written
(401/525) Register 0x05A6: 0x03 written
(402/525) Register 0x0802: 0x35 written
(403/525) Register 0x0803: 0x05 written
(404/525) Register 0x0804: 0x00 written
(405/525) Register 0x0805: 0x00 written
(406/525) Register 0x0806: 0x00 written
(407/525) Register 0x0807: 0x00 written
(408/525) Register 0x0808: 0x00 written
(409/525) Register 0x0809: 0x00 written
DO NOT STOP THIS PROCESS BY CTRL-C!
(410/525) Register 0x080A: 0x00 written
(411/525) Register 0x080B: 0x00 written
(412/525) Register 0x080C: 0x00 written
(413/525) Register 0x080D: 0x00 written
(414/525) Register 0x080E: 0x00 written
(415/525) Register 0x080F: 0x00 written
(416/525) Register 0x0810: 0x00 written
(417/525) Register 0x0811: 0x00 written
(418/525) Register 0x0812: 0x00 written
(419/525) Register 0x0813: 0x00 written
DO NOT STOP THIS PROCESS BY CTRL-C!
(420/525) Register 0x0814: 0x00 written
(421/525) Register 0x0815: 0x00 written
(422/525) Register 0x0816: 0x00 written
(423/525) Register 0x0817: 0x00 written
(424/525) Register 0x0818: 0x00 written
(425/525) Register 0x0819: 0x00 written
(426/525) Register 0x081A: 0x00 written
(427/525) Register 0x081B: 0x00 written
(428/525) Register 0x081C: 0x00 written
(429/525) Register 0x081D: 0x00 written
DO NOT STOP THIS PROCESS BY CTRL-C!
(430/525) Register 0x081E: 0x00 written
(431/525) Register 0x081F: 0x00 written
(432/525) Register 0x0820: 0x00 written
(433/525) Register 0x0821: 0x00 written
(434/525) Register 0x0822: 0x00 written
(435/525) Register 0x0823: 0x00 written
(436/525) Register 0x0824: 0x00 written
(437/525) Register 0x0825: 0x00 written
(438/525) Register 0x0826: 0x00 written
(439/525) Register 0x0827: 0x00 written
DO NOT STOP THIS PROCESS BY CTRL-C!
(440/525) Register 0x0828: 0x00 written
(441/525) Register 0x0829: 0x00 written
(442/525) Register 0x082A: 0x00 written
(443/525) Register 0x082B: 0x00 written
(444/525) Register 0x082C: 0x00 written
(445/525) Register 0x082D: 0x00 written
(446/525) Register 0x082E: 0x00 written
(447/525) Register 0x082F: 0x00 written
(448/525) Register 0x0830: 0x00 written
(449/525) Register 0x0831: 0x00 written
DO NOT STOP THIS PROCESS BY CTRL-C!
(450/525) Register 0x0832: 0x00 written
(451/525) Register 0x0833: 0x00 written
(452/525) Register 0x0834: 0x00 written
(453/525) Register 0x0835: 0x00 written
(454/525) Register 0x0836: 0x00 written
(455/525) Register 0x0837: 0x00 written
(456/525) Register 0x0838: 0x00 written
(457/525) Register 0x0839: 0x00 written
(458/525) Register 0x083A: 0x00 written
(459/525) Register 0x083B: 0x00 written
DO NOT STOP THIS PROCESS BY CTRL-C!
(460/525) Register 0x083C: 0x00 written
(461/525) Register 0x083D: 0x00 written
(462/525) Register 0x083E: 0x00 written
(463/525) Register 0x083F: 0x00 written
(464/525) Register 0x0840: 0x00 written
(465/525) Register 0x0841: 0x00 written
(466/525) Register 0x0842: 0x00 written
(467/525) Register 0x0843: 0x00 written
(468/525) Register 0x0844: 0x00 written
(469/525) Register 0x0845: 0x00 written
DO NOT STOP THIS PROCESS BY CTRL-C!
(470/525) Register 0x0846: 0x00 written
(471/525) Register 0x0847: 0x00 written
(472/525) Register 0x0848: 0x00 written
(473/525) Register 0x0849: 0x00 written
(474/525) Register 0x084A: 0x00 written
(475/525) Register 0x084B: 0x00 written
(476/525) Register 0x084C: 0x00 written
(477/525) Register 0x084D: 0x00 written
(478/525) Register 0x084E: 0x00 written
(479/525) Register 0x084F: 0x00 written
DO NOT STOP THIS PROCESS BY CTRL-C!
(480/525) Register 0x0850: 0x00 written
(481/525) Register 0x0851: 0x00 written
(482/525) Register 0x0852: 0x00 written
(483/525) Register 0x0853: 0x00 written
(484/525) Register 0x0854: 0x00 written
(485/525) Register 0x0855: 0x00 written
(486/525) Register 0x0856: 0x00 written
(487/525) Register 0x0857: 0x00 written
(488/525) Register 0x0858: 0x00 written
(489/525) Register 0x0859: 0x00 written
DO NOT STOP THIS PROCESS BY CTRL-C!
(490/525) Register 0x085A: 0x00 written
(491/525) Register 0x085B: 0x00 written
(492/525) Register 0x085C: 0x00 written
(493/525) Register 0x085D: 0x00 written
(494/525) Register 0x085E: 0x00 written
(495/525) Register 0x085F: 0x00 written
(496/525) Register 0x0860: 0x00 written
(497/525) Register 0x0861: 0x00 written
(498/525) Register 0x090E: 0x02 written
(499/525) Register 0x0943: 0x00 written
DO NOT STOP THIS PROCESS BY CTRL-C!
(500/525) Register 0x0949: 0x0A written
(501/525) Register 0x094A: 0x0A written
(502/525) Register 0x094E: 0x49 written
(503/525) Register 0x094F: 0x02 written
(504/525) Register 0x095E: 0x00 written
(505/525) Register 0x0A02: 0x00 written
(506/525) Register 0x0A03: 0x01 written
(507/525) Register 0x0A04: 0x01 written
(508/525) Register 0x0A05: 0x01 written
(509/525) Register 0x0A14: 0x00 written
DO NOT STOP THIS PROCESS BY CTRL-C!
(510/525) Register 0x0A1A: 0x00 written
(511/525) Register 0x0A20: 0x00 written
(512/525) Register 0x0A26: 0x00 written
(513/525) Register 0x0A2C: 0x00 written
(514/525) Register 0x0B44: 0x2F written
(515/525) Register 0x0B46: 0x00 written
(516/525) Register 0x0B47: 0x05 written
(517/525) Register 0x0B48: 0x05 written
(518/525) Register 0x0B4A: 0x1E written
(519/525) Register 0x0B57: 0x0E written
DO NOT STOP THIS PROCESS BY CTRL-C!
(520/525) Register 0x0B58: 0x01 written

[0;33m(sl-xu5-eth0-01)[0m si5345 [0;33m#[0m ./si5345 --skip-13[K[K[K[K[K[K[Kpostamble
Register 0x0514: 0x01 written
Register 0x001C: 0x01 written
Register 0x0540: 0x00 written
Register 0x0B24: 0xC3 written
Register 0x0B25: 0x02 written

[0;33m(sl-xu5-eth0-01)[0m si5345 [0;33m#[0m ./si5345 --postamble[2Pskip-13write --address=0x002c --data=0xa preamble[K[8Pmake si5345
make: `si5345' ã¯æ›´æ–°æ¸ˆã¿ã§ã™

[0;33m(sl-xu5-eth0-01)[0m si5345 [0;33m#[0m make si5345./si5345 --postamble[2Pskip-13write --address=0x002c --data=0xa preamble[K[8Pmake si5345ls[Kcd apps/si5345/i2cdump -y 4 0x68
No size specified (using byte-data access)
     0  1  2  3  4  5  6  7  8  9  a  b  c  d  e  f    0123456789abcdef
00: 00 0a 0a 0a 0a 01 00 00 00 00 00 00 00 00 00 00    .?????..........
10: 00 00 1f 0a 01 00 00 00 00 00 00 00 01 00 00 00    ..???.......?...
20: 00 00 00 0b 0b 02 00 00 00 00 00 0a 00 00 00 00    ...???.....?....
30: 00 00 04 06 06 06 06 06 00 00 00 00 00 00 00 00    ..??????........
40: 00 00 00 00 00 00 00 00 00 00 00 00 00 00 00 00    ................
50: 00 00 00 00 00 00 00 00 00 00 00 00 00 00 00 00    ................
60: 00 00 00 00 00 00 00 00 00 00 00 00 00 00 00 00    ................
70: 00 00 00 00 00 00 00 00 00 00 00 00 00 00 00 00    ................
80: 00 00 00 00 00 00 00 00 00 00 00 00 00 00 00 00    ................
90: 00 00 00 00 00 00 00 00 00 00 00 00 00 00 00 00    ................
a0: 00 00 00 00 00 00 00 00 00 00 00 00 00 00 00 00    ................
b0: 00 00 00 00 00 00 00 00 00 00 00 00 00 00 00 00    ................
c0: 00 00 00 00 00 00 00 00 00 00 00 00 00 00 00 00    ................
d0: 00 00 00 00 00 00 00 00 00 00 00 00 00 00 00 00    ................
e0: 00 00 00 00 00 00 00 00 00 00 00 00 00 00 00 00    ................
f0: 00 00 00 00 00 00 00 00 00 00 00 00 00 00 0f 00    ..............?.

[0;33m(sl-xu5-eth0-01)[0m si5345 [0;33m#[0m i2cdump -y 4 0x68[6Pmake si5345./si5345 --postamble[2Pskip-13write --address=0x002c --data=0xa skip-13[Kpostamble[9Pmake si5345i2cdump -y 4 0x68[Ks[K./si5345 --read ==[K[K--address=0c[Kx1
reg_addr = 0x0001,	value = 0x0A

[0;33m(sl-xu5-eth0-01)[0m si5345 [0;33m#[0m ./si5345 --read --address=0x1
reg_addr = 0x0001,	value = 0x0A

[0;33m(sl-xu5-eth0-01)[0m si5345 [0;33m#[0m ./si5345 --read --address=0x1
reg_addr = 0x0001,	value = 0x0A

[0;33m(sl-xu5-eth0-01)[0m si5345 [0;33m#[0m ./si5345 --read --address=0x1
reg_addr = 0x0001,	value = 0x0A

[0;33m(sl-xu5-eth0-01)[0m si5345 [0;33m#[0m ./si5345 --read --address=0x1[K0000
reg_addr = 0x0000,	value = 0x00

[0;33m(sl-xu5-eth0-01)[0m si5345 [0;33m#[0m ./si5345 --read --address=0x0000
reg_addr = 0x0000,	value = 0x00

[0;33m(sl-xu5-eth0-01)[0m si5345 [0;33m#[0m ./si5345 --read --address=0x0000[K1
reg_addr = 0x0001,	value = 0x0A

[0;33m(sl-xu5-eth0-01)[0m si5345 [0;33m#[0m ./si5345 --read --address=0x0001
reg_addr = 0x0001,	value = 0x0A

[0;33m(sl-xu5-eth0-01)[0m si5345 [0;33m#[0m ./si5345 --read --address=0x0001[K2
reg_addr = 0x0002,	value = 0x45

[0;33m(sl-xu5-eth0-01)[0m si5345 [0;33m#[0m ./si5345 --read --address=0x0002[K1
reg_addr = 0x0001,	value = 0x00

[0;33m(sl-xu5-eth0-01)[0m si5345 [0;33m#[0m ./si5345 --read --address=0x00012101[K[C[C[C[C[C[C[C[C[C[C[C[C[C[C[C[C[C[C[C[C[C[C[C[C[C[C[12Pi2cdump -y 4 0x68
No size specified (using byte-data access)
     0  1  2  3  4  5  6  7  8  9  a  b  c  d  e  f    0123456789abcdef
00: 05 00 45 53 01 03 00 00 00 00 00 68 c9 00 0f ff    ?.ES??.....h?.?.
10: 00 df ff 2f ff 01 00 00 00 00 df 00 00 00 00 00    .?./.?....?.....
20: 00 0f 00 0b 0b 00 00 00 00 00 00 02 00 00 00 00    .?.??......?....
30: 00 00 00 00 00 00 00 00 00 00 00 00 00 00 00 00    ................
40: 00 00 00 00 00 00 00 00 00 00 00 00 00 00 00 00    ................
50: 00 00 00 00 00 00 00 00 00 00 00 00 00 00 00 00    ................
60: 00 00 00 00 00 00 00 00 00 00 00 00 00 00 00 00    ................
70: 00 00 00 00 00 00 00 00 00 00 00 00 00 00 00 00    ................
80: 00 00 00 00 00 00 00 00 00 00 00 00 00 00 00 00    ................
90: 00 00 00 a0 00 00 80 00 60 00 00 60 00 00 40 00    ...?..?.`..`..@.
a0: 20 00 00 00 00 00 00 00 00 00 00 00 00 00 00 00     ...............
b0: 00 00 00 00 00 00 00 01 00 76 18 d4 29 3e dc 51    .......?.v??)>?Q
c0: 00 00 00 00 00 00 00 00 00 00 00 00 00 00 00 00    ................
d0: 00 00 00 00 00 00 00 00 00 00 00 00 00 00 00 00    ................
e0: 00 00 03 00 00 00 00 00 00 00 00 00 00 00 00 00    ..?.............
f0: 00 00 00 00 00 00 0f df ff 2f 20 00 00 00 0f 00    ......??./ ...?.

[0;33m(sl-xu5-eth0-01)[0m si5345 [0;33m#[0m i2cdump -y 4 0x68./si5345 --read --address=0x00012101[K[C[C[C[C[C[C[C[C[C[C[C[C[C[C[C[C[C[C[C[C[C[C[C[C[C[C[12Pi2cdump -y 4 0x68[6Pmake si5345i2cdump -y 4 0x68./si5345 --read --address=0x10000121[C[C[C[C[C[C[C[C[C[C[C[C[C[C[C[C[C[C[C[C[C[C[C[C[C[C[15Pi2cdump -y 4 0x68[K./si5345 --write [K-all
This process takes time (ETA: 0.09 min).
You can't stop it by ctrl-c, because it may break your system.
Do you want to proceed? [y/n]
t y
DO NOT STOP THIS PROCESS BY CTRL-C!
(000/525) Register 0x0B24: 0xC0 written
(001/525) Register 0x0B25: 0x00 written
(002/525) Register 0x0540: 0x01 written
(003/525) Register 0x0006: 0x00 written
(004/525) Register 0x0007: 0x00 written
(005/525) Register 0x0008: 0x00 written
(006/525) Register 0x000B: 0x68 written
(007/525) Register 0x0016: 0x02 written
(008/525) Register 0x0017: 0xDC written
(009/525) Register 0x0018: 0xD5 written
DO NOT STOP THIS PROCESS BY CTRL-C!
(010/525) Register 0x0019: 0xDD written
(011/525) Register 0x001A: 0xDF written
(012/525) Register 0x002B: 0x02 written
i2c-write operation failed: No such device or address
(013/525) Failed to write 0x0A at reg address 0x002C.
Couldn't write data 0x0A at reg address 0x002C.

[0;33m(sl-xu5-eth0-01)[0m si5345 [0;33m#[0m ./si5345 --write-all
This process takes time (ETA: 0.09 min).
You can't stop it by ctrl-c, because it may break your system.
Do you want to proceed? [y/n]
y
DO NOT STOP THIS PROCESS BY CTRL-C!
(000/525) Register 0x0B24: 0xC0 written
(001/525) Register 0x0B25: 0x00 written
(002/525) Register 0x0540: 0x01 written
(003/525) Register 0x0006: 0x00 written
(004/525) Register 0x0007: 0x00 written
(005/525) Register 0x0008: 0x00 written
(006/525) Register 0x000B: 0x68 written
(007/525) Register 0x0016: 0x02 written
(008/525) Register 0x0017: 0xDC written
(009/525) Register 0x0018: 0xD5 written
DO NOT STOP THIS PROCESS BY CTRL-C!
(010/525) Register 0x0019: 0xDD written
(011/525) Register 0x001A: 0xDF written
(012/525) Register 0x002B: 0x02 written
i2c-write operation failed: No such device or address
(013/525) Failed to write 0x0A at reg address 0x002C.
Couldn't write data 0x0A at reg address 0x002C.

[0;33m(sl-xu5-eth0-01)[0m si5345 [0;33m#[0m ./si5345 --write-all
This process takes time (ETA: 0.09 min).
You can't stop it by ctrl-c, because it may break your system.
Do you want to proceed? [y/n]
y
DO NOT STOP THIS PROCESS BY CTRL-C!
(000/525) Register 0x0B24: 0xC0 written
(001/525) Register 0x0B25: 0x00 written
(002/525) Register 0x0540: 0x01 written
(003/525) Register 0x0006: 0x00 written
(004/525) Register 0x0007: 0x00 written
(005/525) Register 0x0008: 0x00 written
(006/525) Register 0x000B: 0x68 written
(007/525) Register 0x0016: 0x02 written
(008/525) Register 0x0017: 0xDC written
(009/525) Register 0x0018: 0xD5 written
DO NOT STOP THIS PROCESS BY CTRL-C!
(010/525) Register 0x0019: 0xDD written
(011/525) Register 0x001A: 0xDF written
(012/525) Register 0x002B: 0x02 written
i2c-write operation failed: No such device or address
(013/525) Failed to write 0x0A at reg address 0x002C.
Couldn't write data 0x0A at reg address 0x002C.

[0;33m(sl-xu5-eth0-01)[0m si5345 [0;33m#[0m ./si5345 --write-all
This process takes time (ETA: 0.09 min).
You can't stop it by ctrl-c, because it may break your system.
Do you want to proceed? [y/n]
y
DO NOT STOP THIS PROCESS BY CTRL-C!
(000/525) Register 0x0B24: 0xC0 written
(001/525) Register 0x0B25: 0x00 written
(002/525) Register 0x0540: 0x01 written
(003/525) Register 0x0006: 0x00 written
(004/525) Register 0x0007: 0x00 written
(005/525) Register 0x0008: 0x00 written
(006/525) Register 0x000B: 0x68 written
(007/525) Register 0x0016: 0x02 written
(008/525) Register 0x0017: 0xDC written
(009/525) Register 0x0018: 0xD5 written
DO NOT STOP THIS PROCESS BY CTRL-C!
(010/525) Register 0x0019: 0xDD written
(011/525) Register 0x001A: 0xDF written
(012/525) Register 0x002B: 0x02 written
i2c-write operation failed: No such device or address
(013/525) Failed to write 0x0A at reg address 0x002C.
Couldn't write data 0x0A at reg address 0x002C.

[0;33m(sl-xu5-eth0-01)[0m si5345 [0;33m#[0m ./si5345 --write-all[3Pi2cdump -y 4 0x68./si5345 --read --address=0x0001[C[C[C[C[C[C[C[C[C[C[C[C[C[C[C[C[C[C[C[C[C[C[C[C[C[C[15Pi2cdump -y 4 0x68
No size specified (using byte-data access)
     0  1  2  3  4  5  6  7  8  9  a  b  c  d  e  f    0123456789abcdef
00: 05 00 45 53 01 03 00 00 00 00 00 68 d9 50 0f ff    ?.ES??.....h?P?.
10: 00 df ff 2f ff 01 00 00 00 00 df 00 00 00 00 00    .?./.?....?.....
20: 00 0f 00 0b 0b 00 00 00 00 00 00 00 00 00 00 00    .?.??...........
30: 00 00 00 00 00 00 00 00 00 00 00 00 00 00 00 05    ...............?
40: 01 00 00 00 00 00 00 00 00 00 00 00 00 00 00 00    ?...............
50: 00 00 00 00 00 00 00 00 00 00 00 00 00 00 00 00    ................
60: 00 00 00 00 00 00 00 00 00 00 00 00 00 00 00 00    ................
70: 00 00 00 00 00 00 00 00 00 00 00 00 00 00 00 00    ................
80: 00 00 00 00 00 00 00 00 00 00 00 00 00 00 00 00    ................
90: 00 00 00 a0 00 00 80 00 60 00 00 60 00 00 40 00    ...?..?.`..`..@.
a0: 20 00 00 00 00 00 00 00 00 00 00 00 00 00 00 00     ...............
b0: 00 00 00 00 00 00 00 01 00 cf 1b 92 29 3e dc 51    .......?.???)>?Q
c0: 00 00 00 00 00 00 00 00 00 00 00 00 00 00 00 00    ................
d0: 00 00 00 00 00 00 00 00 00 00 00 00 00 00 00 00    ................
e0: 00 00 03 00 00 00 00 00 00 00 00 00 00 00 00 00    ..?.............
f0: 00 00 00 00 00 00 0f df ff 2f 20 00 00 00 0f 00    ......??./ ...?.

[0;33m(sl-xu5-eth0-01)[0m si5345 [0;33m#[0m i2cdump -y 4 0x68./si5345 --write-all[3Pi2cdump -y 4 0x68./si5345 --read --address=0x00012101[K0000121[C[C[C[C[C[C[C[C[C[C[C[C[C[C[C[C[C[C[C[C[C[C[C[C[C[C[15Pi2cdump -y 4 0x68./si5345 --write-all[3Pi2cdump -y 4 0x68[K./si5345 --postamble && ./si5345 --skip-13 %%[K[K&& ./si5345 --write --address=0x2c --data=0 x0a && ./si5345 --preab[Kmble
Register 0x0514: 0x01 written
Register 0x001C: 0x01 written
Register 0x0540: 0x00 written
Register 0x0B24: 0xC3 written
Register 0x0B25: 0x02 written
This process takes time (ETA: 0.09 min).
You can't stop it by ctrl-c, because it may break your system.
Do you want to proceed? [y/n]
y
(003/525) Register 0x0006: 0x00 written
(004/525) Register 0x0007: 0x00 written
(005/525) Register 0x0008: 0x00 written
(006/525) Register 0x000B: 0x68 written
(007/525) Register 0x0016: 0x02 written
(008/525) Register 0x0017: 0xDC written
(009/525) Register 0x0018: 0xD5 written
DO NOT STOP THIS PROCESS BY CTRL-C!
(010/525) Register 0x0019: 0xDD written
(011/525) Register 0x001A: 0xDF written
(012/525) Register 0x002B: 0x02 written
(014/525) Register 0x002D: 0x44 written
(015/525) Register 0x002E: 0x00 written
(016/525) Register 0x002F: 0x00 written
(017/525) Register 0x0030: 0x44 written
(018/525) Register 0x0031: 0x00 written
(019/525) Register 0x0032: 0x00 written
DO NOT STOP THIS PROCESS BY CTRL-C!
(020/525) Register 0x0033: 0x00 written
(021/525) Register 0x0034: 0x44 written
(022/525) Register 0x0035: 0x00 written
(023/525) Register 0x0036: 0x00 written
(024/525) Register 0x0037: 0x00 written
(025/525) Register 0x0038: 0x44 written
(026/525) Register 0x0039: 0x00 written
(027/525) Register 0x003A: 0x00 written
(028/525) Register 0x003B: 0x00 written
(029/525) Register 0x003C: 0x44 written
DO NOT STOP THIS PROCESS BY CTRL-C!
(030/525) Register 0x003D: 0x00 written
(031/525) Register 0x003F: 0x22 written
(032/525) Register 0x0040: 0x04 written
(033/525) Register 0x0041: 0x00 written
(034/525) Register 0x0042: 0x0C written
(035/525) Register 0x0043: 0x00 written
(036/525) Register 0x0044: 0x0C written
(037/525) Register 0x0045: 0x0C written
(038/525) Register 0x0046: 0x00 written
(039/525) Register 0x0047: 0x32 written
DO NOT STOP THIS PROCESS BY CTRL-C!
(040/525) Register 0x0048: 0x00 written
(041/525) Register 0x0049: 0x00 written
(042/525) Register 0x004A: 0x00 written
(043/525) Register 0x004B: 0x32 written
(044/525) Register 0x004C: 0x00 written
(045/525) Register 0x004D: 0x00 written
(046/525) Register 0x004E: 0x50 written
(047/525) Register 0x004F: 0x00 written
(048/525) Register 0x0050: 0x07 written
(049/525) Register 0x0051: 0x00 written
DO NOT STOP THIS PROCESS BY CTRL-C!
(050/525) Register 0x0052: 0x03 written
(051/525) Register 0x0053: 0x00 written
(052/525) Register 0x0054: 0x00 written
(053/525) Register 0x0055: 0x00 written
(054/525) Register 0x0056: 0x03 written
(055/525) Register 0x0057: 0x00 written
(056/525) Register 0x0058: 0x00 written
(057/525) Register 0x0059: 0x04 written
(058/525) Register 0x005A: 0x00 written
(059/525) Register 0x005B: 0x00 written
DO NOT STOP THIS PROCESS BY CTRL-C!
(060/525) Register 0x005C: 0x00 written
(061/525) Register 0x005D: 0x00 written
(062/525) Register 0x005E: 0x31 written
(063/525) Register 0x005F: 0xC1 written
(064/525) Register 0x0060: 0xD5 written
(065/525) Register 0x0061: 0x00 written
(066/525) Register 0x0062: 0x00 written
(067/525) Register 0x0063: 0x00 written
(068/525) Register 0x0064: 0x00 written
(069/525) Register 0x0065: 0x00 written
DO NOT STOP THIS PROCESS BY CTRL-C!
(070/525) Register 0x0066: 0x00 written
(071/525) Register 0x0067: 0x00 written
(072/525) Register 0x0068: 0x00 written
(073/525) Register 0x0069: 0x00 written
(074/525) Register 0x0092: 0x02 written
(075/525) Register 0x0093: 0xA0 written
(076/525) Register 0x0095: 0x00 written
(077/525) Register 0x0096: 0x80 written
(078/525) Register 0x0098: 0x60 written
(079/525) Register 0x009A: 0x02 written
DO NOT STOP THIS PROCESS BY CTRL-C!
(080/525) Register 0x009B: 0x60 written
(081/525) Register 0x009D: 0x00 written
(082/525) Register 0x009E: 0x40 written
(083/525) Register 0x00A0: 0x20 written
(084/525) Register 0x00A2: 0x00 written
(085/525) Register 0x00A9: 0x08 written
(086/525) Register 0x00AA: 0x0C written
(087/525) Register 0x00AB: 0x00 written
(088/525) Register 0x00AC: 0x00 written
(089/525) Register 0x00E5: 0x00 written
DO NOT STOP THIS PROCESS BY CTRL-C!
(090/525) Register 0x00EA: 0x01 written
(091/525) Register 0x00EB: 0x0C written
(092/525) Register 0x00EC: 0x00 written
(093/525) Register 0x00ED: 0x00 written
(094/525) Register 0x0102: 0x01 written
(095/525) Register 0x0108: 0x01 written
(096/525) Register 0x0109: 0x09 written
(097/525) Register 0x010A: 0x3B written
(098/525) Register 0x010B: 0x28 written
(099/525) Register 0x010D: 0x06 written
DO NOT STOP THIS PROCESS BY CTRL-C!
(100/525) Register 0x010E: 0x09 written
(101/525) Register 0x010F: 0x3E written
(102/525) Register 0x0110: 0x18 written
(103/525) Register 0x0112: 0x01 written
(104/525) Register 0x0113: 0x09 written
(105/525) Register 0x0114: 0x3B written
(106/525) Register 0x0115: 0x28 written
(107/525) Register 0x0117: 0x06 written
(108/525) Register 0x0118: 0x09 written
(109/525) Register 0x0119: 0x3E written
DO NOT STOP THIS PROCESS BY CTRL-C!
(110/525) Register 0x011A: 0x18 written
(111/525) Register 0x011C: 0x01 written
(112/525) Register 0x011D: 0x09 written
(113/525) Register 0x011E: 0x3B written
(114/525) Register 0x011F: 0x28 written
(115/525) Register 0x0121: 0x01 written
(116/525) Register 0x0122: 0x09 written
(117/525) Register 0x0123: 0x3B written
(118/525) Register 0x0124: 0x28 written
(119/525) Register 0x0126: 0x01 written
DO NOT STOP THIS PROCESS BY CTRL-C!
(120/525) Register 0x0127: 0x09 written
(121/525) Register 0x0128: 0x3B written
(122/525) Register 0x0129: 0x28 written
(123/525) Register 0x012B: 0x01 written
(124/525) Register 0x012C: 0x09 written
(125/525) Register 0x012D: 0x3B written
(126/525) Register 0x012E: 0x28 written
(127/525) Register 0x0130: 0x01 written
(128/525) Register 0x0131: 0x09 written
(129/525) Register 0x0132: 0x3B written
DO NOT STOP THIS PROCESS BY CTRL-C!
(130/525) Register 0x0133: 0x28 written
(131/525) Register 0x013A: 0x02 written
(132/525) Register 0x013B: 0x09 written
(133/525) Register 0x013C: 0x3B written
(134/525) Register 0x013D: 0x28 written
(135/525) Register 0x013F: 0x00 written
(136/525) Register 0x0140: 0x08 written
(137/525) Register 0x0141: 0x40 written
(138/525) Register 0x0142: 0xFF written
(139/525) Register 0x0206: 0x00 written
DO NOT STOP THIS PROCESS BY CTRL-C!
(140/525) Register 0x0208: 0x00 written
(141/525) Register 0x0209: 0x00 written
(142/525) Register 0x020A: 0x00 written
(143/525) Register 0x020B: 0x00 written
(144/525) Register 0x020C: 0x00 written
(145/525) Register 0x020D: 0x00 written
(146/525) Register 0x020E: 0x00 written
(147/525) Register 0x020F: 0x00 written
(148/525) Register 0x0210: 0x00 written
(149/525) Register 0x0211: 0x00 written
DO NOT STOP THIS PROCESS BY CTRL-C!
(150/525) Register 0x0212: 0x19 written
(151/525) Register 0x0213: 0x00 written
(152/525) Register 0x0214: 0x00 written
(153/525) Register 0x0215: 0x00 written
(154/525) Register 0x0216: 0x00 written
(155/525) Register 0x0217: 0x00 written
(156/525) Register 0x0218: 0x01 written
(157/525) Register 0x0219: 0x00 written
(158/525) Register 0x021A: 0x00 written
(159/525) Register 0x021B: 0x00 written
DO NOT STOP THIS PROCESS BY CTRL-C!
(160/525) Register 0x021C: 0x00 written
(161/525) Register 0x021D: 0x00 written
(162/525) Register 0x021E: 0x00 written
(163/525) Register 0x021F: 0x00 written
(164/525) Register 0x0220: 0x00 written
(165/525) Register 0x0221: 0x00 written
(166/525) Register 0x0222: 0x00 written
(167/525) Register 0x0223: 0x00 written
(168/525) Register 0x0224: 0x00 written
(169/525) Register 0x0225: 0x00 written
DO NOT STOP THIS PROCESS BY CTRL-C!
(170/525) Register 0x0226: 0x19 written
(171/525) Register 0x0227: 0x00 written
(172/525) Register 0x0228: 0x00 written
(173/525) Register 0x0229: 0x00 written
(174/525) Register 0x022A: 0x00 written
(175/525) Register 0x022B: 0x00 written
(176/525) Register 0x022C: 0x01 written
(177/525) Register 0x022D: 0x00 written
(178/525) Register 0x022E: 0x00 written
(179/525) Register 0x022F: 0x00 written
DO NOT STOP THIS PROCESS BY CTRL-C!
(180/525) Register 0x0231: 0x0B written
(181/525) Register 0x0232: 0x0B written
(182/525) Register 0x0233: 0x0B written
(183/525) Register 0x0234: 0x0B written
(184/525) Register 0x0235: 0x00 written
(185/525) Register 0x0236: 0x00 written
(186/525) Register 0x0237: 0x40 written
(187/525) Register 0x0238: 0xFA written
(188/525) Register 0x0239: 0x11 written
(189/525) Register 0x023A: 0x01 written
DO NOT STOP THIS PROCESS BY CTRL-C!
(190/525) Register 0x023B: 0x00 written
(191/525) Register 0x023C: 0x00 written
(192/525) Register 0x023D: 0x00 written
(193/525) Register 0x023E: 0xFA written
(194/525) Register 0x024A: 0x00 written
(195/525) Register 0x024B: 0x00 written
(196/525) Register 0x024C: 0x00 written
(197/525) Register 0x024D: 0x00 written
(198/525) Register 0x024E: 0x00 written
(199/525) Register 0x024F: 0x00 written
DO NOT STOP THIS PROCESS BY CTRL-C!
(200/525) Register 0x0250: 0x00 written
(201/525) Register 0x0251: 0x00 written
(202/525) Register 0x0252: 0x00 written
(203/525) Register 0x0253: 0x00 written
(204/525) Register 0x0254: 0x00 written
(205/525) Register 0x0255: 0x00 written
(206/525) Register 0x0256: 0x00 written
(207/525) Register 0x0257: 0x00 written
(208/525) Register 0x0258: 0x00 written
(209/525) Register 0x0259: 0x00 written
DO NOT STOP THIS PROCESS BY CTRL-C!
(210/525) Register 0x025A: 0x00 written
(211/525) Register 0x025B: 0x00 written
(212/525) Register 0x025C: 0x00 written
(213/525) Register 0x025D: 0x00 written
(214/525) Register 0x025E: 0x00 written
(215/525) Register 0x025F: 0x00 written
(216/525) Register 0x0260: 0x00 written
(217/525) Register 0x0261: 0x00 written
(218/525) Register 0x0262: 0x00 written
(219/525) Register 0x0263: 0x00 written
DO NOT STOP THIS PROCESS BY CTRL-C!
(220/525) Register 0x0264: 0x00 written
(221/525) Register 0x0268: 0x05 written
(222/525) Register 0x0269: 0x00 written
(223/525) Register 0x026A: 0x00 written
(224/525) Register 0x026B: 0x35 written
(225/525) Register 0x026C: 0x33 written
(226/525) Register 0x026D: 0x34 written
(227/525) Register 0x026E: 0x35 written
(228/525) Register 0x026F: 0x00 written
(229/525) Register 0x0270: 0x00 written
DO NOT STOP THIS PROCESS BY CTRL-C!
(230/525) Register 0x0271: 0x00 written
(231/525) Register 0x0272: 0x00 written
(232/525) Register 0x028A: 0x00 written
(233/525) Register 0x028B: 0x00 written
(234/525) Register 0x028C: 0x00 written
(235/525) Register 0x028D: 0x00 written
(236/525) Register 0x028E: 0x00 written
(237/525) Register 0x028F: 0x00 written
(238/525) Register 0x0290: 0x00 written
(239/525) Register 0x0291: 0x00 written
DO NOT STOP THIS PROCESS BY CTRL-C!
(240/525) Register 0x0294: 0x80 written
(241/525) Register 0x0296: 0x00 written
(242/525) Register 0x0297: 0x02 written
(243/525) Register 0x0299: 0x02 written
(244/525) Register 0x029D: 0x70 written
(245/525) Register 0x029E: 0x00 written
(246/525) Register 0x029F: 0x00 written
(247/525) Register 0x02A9: 0x99 written
(248/525) Register 0x02AA: 0x00 written
(249/525) Register 0x02AB: 0x00 written
DO NOT STOP THIS PROCESS BY CTRL-C!
(250/525) Register 0x02B7: 0xFF written
(251/525) Register 0x0302: 0x00 written
(252/525) Register 0x0303: 0x00 written
(253/525) Register 0x0304: 0x00 written
(254/525) Register 0x0305: 0x00 written
(255/525) Register 0x0306: 0x0E written
(256/525) Register 0x0307: 0x00 written
(257/525) Register 0x0308: 0x00 written
(258/525) Register 0x0309: 0x00 written
(259/525) Register 0x030A: 0x00 written
DO NOT STOP THIS PROCESS BY CTRL-C!
(260/525) Register 0x030B: 0x80 written
(261/525) Register 0x030C: 0x00 written
(262/525) Register 0x030D: 0x00 written
(263/525) Register 0x030E: 0x00 written
(264/525) Register 0x030F: 0x00 written
(265/525) Register 0x0310: 0x00 written
(266/525) Register 0x0311: 0x00 written
(267/525) Register 0x0312: 0x00 written
(268/525) Register 0x0313: 0x00 written
(269/525) Register 0x0314: 0x00 written
DO NOT STOP THIS PROCESS BY CTRL-C!
(270/525) Register 0x0315: 0x00 written
(271/525) Register 0x0316: 0x00 written
(272/525) Register 0x0317: 0x00 written
(273/525) Register 0x0318: 0x00 written
(274/525) Register 0x0319: 0x00 written
(275/525) Register 0x031A: 0x00 written
(276/525) Register 0x031B: 0x00 written
(277/525) Register 0x031C: 0x00 written
(278/525) Register 0x031D: 0x00 written
(279/525) Register 0x031E: 0x00 written
DO NOT STOP THIS PROCESS BY CTRL-C!
(280/525) Register 0x031F: 0x00 written
(281/525) Register 0x0320: 0x00 written
(282/525) Register 0x0321: 0x00 written
(283/525) Register 0x0322: 0x00 written
(284/525) Register 0x0323: 0x00 written
(285/525) Register 0x0324: 0x00 written
(286/525) Register 0x0325: 0x00 written
(287/525) Register 0x0326: 0x00 written
(288/525) Register 0x0327: 0x00 written
(289/525) Register 0x0328: 0x00 written
DO NOT STOP THIS PROCESS BY CTRL-C!
(290/525) Register 0x0329: 0x00 written
(291/525) Register 0x032A: 0x00 written
(292/525) Register 0x032B: 0x00 written
(293/525) Register 0x032C: 0x00 written
(294/525) Register 0x032D: 0x00 written
(295/525) Register 0x032E: 0x00 written
(296/525) Register 0x032F: 0x00 written
(297/525) Register 0x0330: 0x00 written
(298/525) Register 0x0331: 0x00 written
(299/525) Register 0x0332: 0x00 written
DO NOT STOP THIS PROCESS BY CTRL-C!
(300/525) Register 0x0333: 0x00 written
(301/525) Register 0x0334: 0x00 written
(302/525) Register 0x0335: 0x00 written
(303/525) Register 0x0336: 0x00 written
(304/525) Register 0x0337: 0x00 written
(305/525) Register 0x0338: 0x00 written
(306/525) Register 0x0339: 0x1F written
(307/525) Register 0x033B: 0x00 written
(308/525) Register 0x033C: 0x00 written
(309/525) Register 0x033D: 0x00 written
DO NOT STOP THIS PROCESS BY CTRL-C!
(310/525) Register 0x033E: 0x00 written
(311/525) Register 0x033F: 0x00 written
(312/525) Register 0x0340: 0x00 written
(313/525) Register 0x0341: 0x00 written
(314/525) Register 0x0342: 0x00 written
(315/525) Register 0x0343: 0x00 written
(316/525) Register 0x0344: 0x00 written
(317/525) Register 0x0345: 0x00 written
(318/525) Register 0x0346: 0x00 written
(319/525) Register 0x0347: 0x00 written
DO NOT STOP THIS PROCESS BY CTRL-C!
(320/525) Register 0x0348: 0x00 written
(321/525) Register 0x0349: 0x00 written
(322/525) Register 0x034A: 0x00 written
(323/525) Register 0x034B: 0x00 written
(324/525) Register 0x034C: 0x00 written
(325/525) Register 0x034D: 0x00 written
(326/525) Register 0x034E: 0x00 written
(327/525) Register 0x034F: 0x00 written
(328/525) Register 0x0350: 0x00 written
(329/525) Register 0x0351: 0x00 written
DO NOT STOP THIS PROCESS BY CTRL-C!
(330/525) Register 0x0352: 0x00 written
(331/525) Register 0x0353: 0x00 written
(332/525) Register 0x0354: 0x00 written
(333/525) Register 0x0355: 0x00 written
(334/525) Register 0x0356: 0x00 written
(335/525) Register 0x0357: 0x00 written
(336/525) Register 0x0358: 0x00 written
(337/525) Register 0x0359: 0x00 written
(338/525) Register 0x035A: 0x00 written
(339/525) Register 0x035B: 0x00 written
DO NOT STOP THIS PROCESS BY CTRL-C!
(340/525) Register 0x035C: 0x00 written
(341/525) Register 0x035D: 0x00 written
(342/525) Register 0x035E: 0x00 written
(343/525) Register 0x035F: 0x00 written
(344/525) Register 0x0360: 0x00 written
(345/525) Register 0x0361: 0x00 written
(346/525) Register 0x0362: 0x00 written
(347/525) Register 0x0487: 0x03 written
(348/525) Register 0x0508: 0x14 written
(349/525) Register 0x0509: 0x29 written
DO NOT STOP THIS PROCESS BY CTRL-C!
(350/525) Register 0x050A: 0x06 written
(351/525) Register 0x050B: 0x05 written
(352/525) Register 0x050C: 0x3F written
(353/525) Register 0x050D: 0x0F written
(354/525) Register 0x050E: 0x14 written
(355/525) Register 0x050F: 0x2B written
(356/525) Register 0x0510: 0x06 written
(357/525) Register 0x0511: 0x05 written
(358/525) Register 0x0512: 0x3F written
(359/525) Register 0x0513: 0x0F written
DO NOT STOP THIS PROCESS BY CTRL-C!
(360/525) Register 0x0515: 0x00 written
(361/525) Register 0x0516: 0x00 written
(362/525) Register 0x0517: 0x00 written
(363/525) Register 0x0518: 0x00 written
(364/525) Register 0x0519: 0x48 written
(365/525) Register 0x051A: 0x03 written
(366/525) Register 0x051B: 0x00 written
(367/525) Register 0x051C: 0x00 written
(368/525) Register 0x051D: 0x00 written
(369/525) Register 0x051E: 0x00 written
DO NOT STOP THIS PROCESS BY CTRL-C!
(370/525) Register 0x051F: 0x80 written
(371/525) Register 0x0521: 0x2B written
(372/525) Register 0x052A: 0x03 written
(373/525) Register 0x052B: 0x01 written
(374/525) Register 0x052C: 0x87 written
(375/525) Register 0x052D: 0x03 written
(376/525) Register 0x052E: 0x19 written
(377/525) Register 0x052F: 0x19 written
(378/525) Register 0x0531: 0x00 written
(379/525) Register 0x0532: 0x10 written
DO NOT STOP THIS PROCESS BY CTRL-C!
(380/525) Register 0x0533: 0x04 written
(381/525) Register 0x0534: 0x00 written
(382/525) Register 0x0535: 0x00 written
(383/525) Register 0x0536: 0x00 written
(384/525) Register 0x0537: 0x00 written
(385/525) Register 0x0538: 0x00 written
(386/525) Register 0x0539: 0x00 written
(387/525) Register 0x053A: 0x02 written
(388/525) Register 0x053B: 0x03 written
(389/525) Register 0x053C: 0x00 written
DO NOT STOP THIS PROCESS BY CTRL-C!
(390/525) Register 0x053D: 0x0B written
(391/525) Register 0x053E: 0x06 written
(392/525) Register 0x0589: 0x0E written
(393/525) Register 0x058A: 0x00 written
(394/525) Register 0x059B: 0xF8 written
(395/525) Register 0x059D: 0x14 written
(396/525) Register 0x059E: 0x2B written
(397/525) Register 0x059F: 0x06 written
(398/525) Register 0x05A0: 0x05 written
(399/525) Register 0x05A1: 0x3F written
DO NOT STOP THIS PROCESS BY CTRL-C!
(400/525) Register 0x05A2: 0x0F written
(401/525) Register 0x05A6: 0x03 written
(402/525) Register 0x0802: 0x35 written
(403/525) Register 0x0803: 0x05 written
(404/525) Register 0x0804: 0x00 written
(405/525) Register 0x0805: 0x00 written
(406/525) Register 0x0806: 0x00 written
(407/525) Register 0x0807: 0x00 written
(408/525) Register 0x0808: 0x00 written
(409/525) Register 0x0809: 0x00 written
DO NOT STOP THIS PROCESS BY CTRL-C!
(410/525) Register 0x080A: 0x00 written
(411/525) Register 0x080B: 0x00 written
(412/525) Register 0x080C: 0x00 written
(413/525) Register 0x080D: 0x00 written
(414/525) Register 0x080E: 0x00 written
(415/525) Register 0x080F: 0x00 written
(416/525) Register 0x0810: 0x00 written
(417/525) Register 0x0811: 0x00 written
(418/525) Register 0x0812: 0x00 written
(419/525) Register 0x0813: 0x00 written
DO NOT STOP THIS PROCESS BY CTRL-C!
(420/525) Register 0x0814: 0x00 written
(421/525) Register 0x0815: 0x00 written
(422/525) Register 0x0816: 0x00 written
(423/525) Register 0x0817: 0x00 written
(424/525) Register 0x0818: 0x00 written
(425/525) Register 0x0819: 0x00 written
(426/525) Register 0x081A: 0x00 written
(427/525) Register 0x081B: 0x00 written
(428/525) Register 0x081C: 0x00 written
(429/525) Register 0x081D: 0x00 written
DO NOT STOP THIS PROCESS BY CTRL-C!
(430/525) Register 0x081E: 0x00 written
(431/525) Register 0x081F: 0x00 written
(432/525) Register 0x0820: 0x00 written
(433/525) Register 0x0821: 0x00 written
(434/525) Register 0x0822: 0x00 written
(435/525) Register 0x0823: 0x00 written
(436/525) Register 0x0824: 0x00 written
(437/525) Register 0x0825: 0x00 written
(438/525) Register 0x0826: 0x00 written
(439/525) Register 0x0827: 0x00 written
DO NOT STOP THIS PROCESS BY CTRL-C!
(440/525) Register 0x0828: 0x00 written
(441/525) Register 0x0829: 0x00 written
(442/525) Register 0x082A: 0x00 written
(443/525) Register 0x082B: 0x00 written
(444/525) Register 0x082C: 0x00 written
(445/525) Register 0x082D: 0x00 written
(446/525) Register 0x082E: 0x00 written
(447/525) Register 0x082F: 0x00 written
(448/525) Register 0x0830: 0x00 written
(449/525) Register 0x0831: 0x00 written
DO NOT STOP THIS PROCESS BY CTRL-C!
(450/525) Register 0x0832: 0x00 written
(451/525) Register 0x0833: 0x00 written
(452/525) Register 0x0834: 0x00 written
(453/525) Register 0x0835: 0x00 written
(454/525) Register 0x0836: 0x00 written
(455/525) Register 0x0837: 0x00 written
(456/525) Register 0x0838: 0x00 written
(457/525) Register 0x0839: 0x00 written
(458/525) Register 0x083A: 0x00 written
(459/525) Register 0x083B: 0x00 written
DO NOT STOP THIS PROCESS BY CTRL-C!
(460/525) Register 0x083C: 0x00 written
(461/525) Register 0x083D: 0x00 written
(462/525) Register 0x083E: 0x00 written
(463/525) Register 0x083F: 0x00 written
(464/525) Register 0x0840: 0x00 written
(465/525) Register 0x0841: 0x00 written
(466/525) Register 0x0842: 0x00 written
(467/525) Register 0x0843: 0x00 written
(468/525) Register 0x0844: 0x00 written
(469/525) Register 0x0845: 0x00 written
DO NOT STOP THIS PROCESS BY CTRL-C!
(470/525) Register 0x0846: 0x00 written
(471/525) Register 0x0847: 0x00 written
(472/525) Register 0x0848: 0x00 written
(473/525) Register 0x0849: 0x00 written
(474/525) Register 0x084A: 0x00 written
(475/525) Register 0x084B: 0x00 written
(476/525) Register 0x084C: 0x00 written
(477/525) Register 0x084D: 0x00 written
(478/525) Register 0x084E: 0x00 written
(479/525) Register 0x084F: 0x00 written
DO NOT STOP THIS PROCESS BY CTRL-C!
(480/525) Register 0x0850: 0x00 written
(481/525) Register 0x0851: 0x00 written
(482/525) Register 0x0852: 0x00 written
(483/525) Register 0x0853: 0x00 written
(484/525) Register 0x0854: 0x00 written
(485/525) Register 0x0855: 0x00 written
(486/525) Register 0x0856: 0x00 written
(487/525) Register 0x0857: 0x00 written
(488/525) Register 0x0858: 0x00 written
(489/525) Register 0x0859: 0x00 written
DO NOT STOP THIS PROCESS BY CTRL-C!
(490/525) Register 0x085A: 0x00 written
(491/525) Register 0x085B: 0x00 written
(492/525) Register 0x085C: 0x00 written
(493/525) Register 0x085D: 0x00 written
(494/525) Register 0x085E: 0x00 written
(495/525) Register 0x085F: 0x00 written
(496/525) Register 0x0860: 0x00 written
(497/525) Register 0x0861: 0x00 written
(498/525) Register 0x090E: 0x02 written
(499/525) Register 0x0943: 0x00 written
DO NOT STOP THIS PROCESS BY CTRL-C!
(500/525) Register 0x0949: 0x0A written
(501/525) Register 0x094A: 0x0A written
(502/525) Register 0x094E: 0x49 written
(503/525) Register 0x094F: 0x02 written
(504/525) Register 0x095E: 0x00 written
(505/525) Register 0x0A02: 0x00 written
(506/525) Register 0x0A03: 0x01 written
(507/525) Register 0x0A04: 0x01 written
(508/525) Register 0x0A05: 0x01 written
(509/525) Register 0x0A14: 0x00 written
DO NOT STOP THIS PROCESS BY CTRL-C!
(510/525) Register 0x0A1A: 0x00 written
(511/525) Register 0x0A20: 0x00 written
(512/525) Register 0x0A26: 0x00 written
(513/525) Register 0x0A2C: 0x00 written
(514/525) Register 0x0B44: 0x2F written
(515/525) Register 0x0B46: 0x00 written
(516/525) Register 0x0B47: 0x05 written
(517/525) Register 0x0B48: 0x05 written
(518/525) Register 0x0B4A: 0x1E written
(519/525) Register 0x0B57: 0x0E written
DO NOT STOP THIS PROCESS BY CTRL-C!
(520/525) Register 0x0B58: 0x01 written
Register 0x002C: 0x0A written
Wrote reg_addr = 0x002C,	value = 0x0A
Register 0x0B24: 0xC0 written
Register 0x0B25: 0x00 written
Register 0x0540: 0x01 written

[0;33m(sl-xu5-eth0-01)[0m si5345 [0;33m#[0m ./si5345 --postamble && ./si5345 --skip-13 && ./si5345 --write --address=0x2c --data=0xx0a && ./si5345 --preamble[Ai2cdump -y 4 0x68[K
[K[A[C[C[C[C[C[C[C[C[C[C[C[C[C[C[C[C[C[C[C[C[C[C[C[C[C[C[C[C[C[C[C[C[C[C[C[C[C[C[C[C[C[C[C
No size specified (using byte-data access)
     0  1  2  3  4  5  6  7  8  9  a  b  c  d  e  f    0123456789abcdef
00: 00 0a 0a 0a 0a 01 00 00 00 00 00 00 00 00 00 00    .?????..........
10: 00 00 1f 0a 00 00 00 00 00 0a 00 00 00 00 00 0a    ..??.....?.....?
20: 00 00 00 0b 0b 00 00 00 00 00 00 00 08 00 00 00    ...??.......?...
30: 00 00 04 06 06 06 06 06 00 00 00 00 00 00 00 00    ..??????........
40: 00 00 00 00 00 00 00 00 00 00 00 00 00 00 00 00    ................
50: 00 00 00 00 00 00 00 00 00 00 00 00 00 00 00 00    ................
60: 00 00 00 00 00 00 00 00 00 00 00 00 00 00 00 00    ................
70: 00 00 00 00 00 00 00 00 00 00 00 00 00 00 00 00    ................
80: 00 00 00 00 00 00 00 00 00 00 00 00 00 00 00 00    ................
90: 00 00 00 00 00 00 00 00 00 00 00 00 00 00 00 00    ................
a0: 00 00 00 00 00 00 00 00 00 00 00 00 00 00 00 00    ................
b0: 00 00 00 00 00 00 00 00 00 00 00 00 00 00 00 00    ................
c0: 00 00 00 00 00 00 00 00 00 00 00 00 00 00 00 00    ................
d0: 00 00 00 00 00 00 00 00 00 00 00 00 00 00 00 00    ................
e0: 00 00 00 00 00 00 00 00 00 00 00 00 00 00 00 00    ................
f0: 00 00 00 00 00 00 00 00 00 00 00 00 00 00 0f 00    ..............?.

[0;33m(sl-xu5-eth0-01)[0m si5345 [0;33m#[0m i2cdump -y 4 0x68./si5345 --postamble && ./si5345 --skip-13 && ./si5345 --write --address=0x2c --data=0xx0a && ./si5345 --preamble[Ai2cdump -y 4 0x68[K
[K[A[C[C[C[C[C[C[C[C[C[C[C[C[C[C[C[C[C[C[C[C[C[C[C[C[C[C[C[C[C[C[C[C[C[C[C[C[C[C[C[C[C[C[C./si5345 --write-all[3Pi2cdump -y 4 0x68./si5345 --read --address=0x000121
reg_addr = 0x0001,	value = 0x0A

[0;33m(sl-xu5-eth0-01)[0m si5345 [0;33m#[0m ./si5345 --read --address=0x0001[C[C[C[C[C[C[C[C[C[C[C[C[C[C[C[C[C[C[C[C[C[C[C[C[C[C[15Pi2cdump -y 4 0x68./si5345 --postamble && ./si5345 --skip-13 && ./si5345 --write --address=0x2c --data=0xx0a && ./si5345 --preamble[Ai2cdump -y 4 0x68[K
[K[A[C[C[C[C[C[C[C[C[C[C[C[C[C[C[C[C[C[C[C[C[C[C[C[C[C[C[C[C[C[C[C[C[C[C[C[C[C[C[C[C[C[C[C./si5345 --read --address=0x0001[K2
reg_addr = 0x0002,	value = 0x45

[0;33m(sl-xu5-eth0-01)[0m si5345 [0;33m#[0m ./si5345 --read --address=0x0002[C[C[C[C[C[C[C[C[C[C[C[C[C[C[C[C[C[C[C[C[C[C[C[C[C[C[K,.[K[K./i[Ksi5345 --read-all
This process takes time (ETA: 0.09 min).
You can't stop it by ctrl-c, because it may break your system.
Do you want to proceed? [y/n]
y
DO NOT STOP THIS PROCESS BY CTRL-C!
(000/525) Register 0x0B24: 0x0B != 0xC0
(001/525) Register 0x0B25: 0x02 != 0x00
(002/525) Register 0x0540: 0x00 != 0x01
(003/525) Register 0x0006: 0x00
(004/525) Register 0x0007: 0x00
(005/525) Register 0x0008: 0x00
(006/525) Register 0x000B: 0x68
(007/525) Register 0x0016: 0x00 != 0x02
(008/525) Register 0x0017: 0x00 != 0xDC
(009/525) Register 0x0018: 0x00 != 0xD5
DO NOT STOP THIS PROCESS BY CTRL-C!
(010/525) Register 0x0019: 0x00 != 0xDD
(011/525) Register 0x001A: 0xDF
(012/525) Register 0x002B: 0x02
i2c-read operation failed: No such device or address
Error at register 0x002C
RESULT: I2C READ FAILED.

[0;33m(sl-xu5-eth0-01)[0m si5345 [0;33m#[0m ./si5345 --read-all
This process takes time (ETA: 0.09 min).
You can't stop it by ctrl-c, because it may break your system.
Do you want to proceed? [y/n]
y
DO NOT STOP THIS PROCESS BY CTRL-C!
(000/525) Register 0x0B24: 0x0B != 0xC0
(001/525) Register 0x0B25: 0x02 != 0x00
(002/525) Register 0x0540: 0x00 != 0x01
(003/525) Register 0x0006: 0x00
(004/525) Register 0x0007: 0x00
(005/525) Register 0x0008: 0x00
(006/525) Register 0x000B: 0x68
(007/525) Register 0x0016: 0x00 != 0x02
(008/525) Register 0x0017: 0x00 != 0xDC
(009/525) Register 0x0018: 0x00 != 0xD5
DO NOT STOP THIS PROCESS BY CTRL-C!
(010/525) Register 0x0019: 0x00 != 0xDD
(011/525) Register 0x001A: 0xDF
(012/525) Register 0x002B: 0x00 != 0x02
(013/525) Register 0x002C: 0x00 != 0x0A
(014/525) Register 0x002D: 0x00 != 0x44
(015/525) Register 0x002E: 0x00
(016/525) Register 0x002F: 0x00
(017/525) Register 0x0030: 0x00 != 0x44
(018/525) Register 0x0031: 0x00
(019/525) Register 0x0032: 0x00
DO NOT STOP THIS PROCESS BY CTRL-C!
(020/525) Register 0x0033: 0x00
(021/525) Register 0x0034: 0x00 != 0x44
(022/525) Register 0x0035: 0x00
(023/525) Register 0x0036: 0x00
(024/525) Register 0x0037: 0x00
(025/525) Register 0x0038: 0x00 != 0x44
(026/525) Register 0x0039: 0x00
(027/525) Register 0x003A: 0x00
(028/525) Register 0x003B: 0x00
(029/525) Register 0x003C: 0x00 != 0x44
DO NOT STOP THIS PROCESS BY CTRL-C!
(030/525) Register 0x003D: 0x00
(031/525) Register 0x003F: 0x05 != 0x22
(032/525) Register 0x0040: 0x00 != 0x04
(033/525) Register 0x0041: 0x00
(034/525) Register 0x0042: 0x00 != 0x0C
(035/525) Register 0x0043: 0x00
(036/525) Register 0x0044: 0x00 != 0x0C
(037/525) Register 0x0045: 0x00 != 0x0C
(038/525) Register 0x0046: 0x00
(039/525) Register 0x0047: 0x00 != 0x32
DO NOT STOP THIS PROCESS BY CTRL-C!
(040/525) Register 0x0048: 0x00
(041/525) Register 0x0049: 0x00
(042/525) Register 0x004A: 0x00
(043/525) Register 0x004B: 0x00 != 0x32
(044/525) Register 0x004C: 0x00
(045/525) Register 0x004D: 0x00
(046/525) Register 0x004E: 0x00 != 0x50
(047/525) Register 0x004F: 0x00
(048/525) Register 0x0050: 0x00 != 0x07
(049/525) Register 0x0051: 0x00
DO NOT STOP THIS PROCESS BY CTRL-C!
(050/525) Register 0x0052: 0x00 != 0x03
(051/525) Register 0x0053: 0x00
(052/525) Register 0x0054: 0x00
(053/525) Register 0x0055: 0x00
(054/525) Register 0x0056: 0x00 != 0x03
(055/525) Register 0x0057: 0x00
(056/525) Register 0x0058: 0x00
(057/525) Register 0x0059: 0x00 != 0x04
(058/525) Register 0x005A: 0x00
(059/525) Register 0x005B: 0x00
DO NOT STOP THIS PROCESS BY CTRL-C!
(060/525) Register 0x005C: 0x00
(061/525) Register 0x005D: 0x00
(062/525) Register 0x005E: 0x00 != 0x31
(063/525) Register 0x005F: 0x00 != 0xC1
(064/525) Register 0x0060: 0x00 != 0xD5
(065/525) Register 0x0061: 0x00
(066/525) Register 0x0062: 0x00
(067/525) Register 0x0063: 0x00
(068/525) Register 0x0064: 0x00
(069/525) Register 0x0065: 0x00
DO NOT STOP THIS PROCESS BY CTRL-C!
(070/525) Register 0x0066: 0x00
(071/525) Register 0x0067: 0x00
(072/525) Register 0x0068: 0x00
(073/525) Register 0x0069: 0x00
(074/525) Register 0x0092: 0x00 != 0x02
(075/525) Register 0x0093: 0xA0
(076/525) Register 0x0095: 0x00
(077/525) Register 0x0096: 0x80
(078/525) Register 0x0098: 0x60
(079/525) Register 0x009A: 0x00 != 0x02
DO NOT STOP THIS PROCESS BY CTRL-C!
(080/525) Register 0x009B: 0x60
(081/525) Register 0x009D: 0x00
(082/525) Register 0x009E: 0x40
(083/525) Register 0x00A0: 0x20
(084/525) Register 0x00A2: 0x00
(085/525) Register 0x00A9: 0x00 != 0x08
(086/525) Register 0x00AA: 0x00 != 0x0C
(087/525) Register 0x00AB: 0x00
(088/525) Register 0x00AC: 0x00
(089/525) Register 0x00E5: 0x00
DO NOT STOP THIS PROCESS BY CTRL-C!
(090/525) Register 0x00EA: 0x00 != 0x01
(091/525) Register 0x00EB: 0x00 != 0x0C
(092/525) Register 0x00EC: 0x00
(093/525) Register 0x00ED: 0x00
(094/525) Register 0x0102: 0x01
(095/525) Register 0x0108: 0x02 != 0x01
(096/525) Register 0x0109: 0x02 != 0x09
(097/525) Register 0x010A: 0x02 != 0x3B
(098/525) Register 0x010B: 0x02 != 0x28
(099/525) Register 0x010D: 0x02 != 0x06
DO NOT STOP THIS PROCESS BY CTRL-C!
(100/525) Register 0x010E: 0x02 != 0x09
(101/525) Register 0x010F: 0x02 != 0x3E
(102/525) Register 0x0110: 0x02 != 0x18
(103/525) Register 0x0112: 0x02 != 0x01
(104/525) Register 0x0113: 0x02 != 0x09
(105/525) Register 0x0114: 0x02 != 0x3B
(106/525) Register 0x0115: 0x02 != 0x28
(107/525) Register 0x0117: 0x02 != 0x06
(108/525) Register 0x0118: 0x02 != 0x09
(109/525) Register 0x0119: 0x02 != 0x3E
DO NOT STOP THIS PROCESS BY CTRL-C!
(110/525) Register 0x011A: 0x02 != 0x18
(111/525) Register 0x011C: 0x02 != 0x01
(112/525) Register 0x011D: 0x02 != 0x09
(113/525) Register 0x011E: 0x02 != 0x3B
(114/525) Register 0x011F: 0x02 != 0x28
(115/525) Register 0x0121: 0x02 != 0x01
(116/525) Register 0x0122: 0x02 != 0x09
(117/525) Register 0x0123: 0x02 != 0x3B
(118/525) Register 0x0124: 0x02 != 0x28
(119/525) Register 0x0126: 0x02 != 0x01
DO NOT STOP THIS PROCESS BY CTRL-C!
(120/525) Register 0x0127: 0x02 != 0x09
(121/525) Register 0x0128: 0x02 != 0x3B
(122/525) Register 0x0129: 0x02 != 0x28
(123/525) Register 0x012B: 0x02 != 0x01
(124/525) Register 0x012C: 0x02 != 0x09
(125/525) Register 0x012D: 0x02 != 0x3B
(126/525) Register 0x012E: 0x02 != 0x28
(127/525) Register 0x0130: 0x02 != 0x01
(128/525) Register 0x0131: 0x02 != 0x09
(129/525) Register 0x0132: 0x02 != 0x3B
DO NOT STOP THIS PROCESS BY CTRL-C!
(130/525) Register 0x0133: 0x02 != 0x28
(131/525) Register 0x013A: 0x02
(132/525) Register 0x013B: 0x02 != 0x09
(133/525) Register 0x013C: 0x02 != 0x3B
(134/525) Register 0x013D: 0x02 != 0x28
(135/525) Register 0x013F: 0x00
(136/525) Register 0x0140: 0x00 != 0x08
(137/525) Register 0x0141: 0x00 != 0x40
(138/525) Register 0x0142: 0x00 != 0xFF
(139/525) Register 0x0206: 0x00
DO NOT STOP THIS PROCESS BY CTRL-C!
(140/525) Register 0x0208: 0x01 != 0x00
(141/525) Register 0x0209: 0x01 != 0x00
(142/525) Register 0x020A: 0x01 != 0x00
(143/525) Register 0x020B: 0x02 != 0x00
(144/525) Register 0x020C: 0x01 != 0x00
(145/525) Register 0x020D: 0x01 != 0x00
(146/525) Register 0x020E: 0x01 != 0x00
(147/525) Register 0x020F: 0x01 != 0x00
(148/525) Register 0x0210: 0x02 != 0x00
(149/525) Register 0x0211: 0x01 != 0x00
DO NOT STOP THIS PROCESS BY CTRL-C!
(150/525) Register 0x0212: 0x01 != 0x19
(151/525) Register 0x0213: 0x01 != 0x00
(152/525) Register 0x0214: 0x01 != 0x00
(153/525) Register 0x0215: 0x02 != 0x00
(154/525) Register 0x0216: 0x01 != 0x00
(155/525) Register 0x0217: 0x01 != 0x00
(156/525) Register 0x0218: 0x01
(157/525) Register 0x0219: 0x01 != 0x00
(158/525) Register 0x021A: 0x02 != 0x00
(159/525) Register 0x021B: 0x01 != 0x00
DO NOT STOP THIS PROCESS BY CTRL-C!
(160/525) Register 0x021C: 0x01 != 0x00
(161/525) Register 0x021D: 0x01 != 0x00
(162/525) Register 0x021E: 0x01 != 0x00
(163/525) Register 0x021F: 0x02 != 0x00
(164/525) Register 0x0220: 0x01 != 0x00
(165/525) Register 0x0221: 0x01 != 0x00
(166/525) Register 0x0222: 0x01 != 0x00
(167/525) Register 0x0223: 0x01 != 0x00
(168/525) Register 0x0224: 0x02 != 0x00
(169/525) Register 0x0225: 0x01 != 0x00
DO NOT STOP THIS PROCESS BY CTRL-C!
(170/525) Register 0x0226: 0x01 != 0x19
(171/525) Register 0x0227: 0x01 != 0x00
(172/525) Register 0x0228: 0x01 != 0x00
(173/525) Register 0x0229: 0x02 != 0x00
(174/525) Register 0x022A: 0x01 != 0x00
(175/525) Register 0x022B: 0x01 != 0x00
(176/525) Register 0x022C: 0x01
(177/525) Register 0x022D: 0x01 != 0x00
(178/525) Register 0x022E: 0x02 != 0x00
(179/525) Register 0x022F: 0x01 != 0x00
DO NOT STOP THIS PROCESS BY CTRL-C!
(180/525) Register 0x0231: 0x01 != 0x0B
(181/525) Register 0x0232: 0x01 != 0x0B
(182/525) Register 0x0233: 0x02 != 0x0B
(183/525) Register 0x0234: 0x02 != 0x0B
(184/525) Register 0x0235: 0x02 != 0x00
(185/525) Register 0x0236: 0x02 != 0x00
(186/525) Register 0x0237: 0x02 != 0x40
(187/525) Register 0x0238: 0x02 != 0xFA
(188/525) Register 0x0239: 0x01 != 0x11
(189/525) Register 0x023A: 0x01
DO NOT STOP THIS PROCESS BY CTRL-C!
(190/525) Register 0x023B: 0x01 != 0x00
(191/525) Register 0x023C: 0x01 != 0x00
(192/525) Register 0x023D: 0x02 != 0x00
(193/525) Register 0x023E: 0x01 != 0xFA
(194/525) Register 0x024A: 0x02 != 0x00
(195/525) Register 0x024B: 0x02 != 0x00
(196/525) Register 0x024C: 0x02 != 0x00
(197/525) Register 0x024D: 0x02 != 0x00
(198/525) Register 0x024E: 0x02 != 0x00
(199/525) Register 0x024F: 0x02 != 0x00
DO NOT STOP THIS PROCESS BY CTRL-C!
(200/525) Register 0x0250: 0x02 != 0x00
(201/525) Register 0x0251: 0x02 != 0x00
(202/525) Register 0x0252: 0x02 != 0x00
(203/525) Register 0x0253: 0x02 != 0x00
(204/525) Register 0x0254: 0x02 != 0x00
(205/525) Register 0x0255: 0x02 != 0x00
(206/525) Register 0x0256: 0x02 != 0x00
(207/525) Register 0x0257: 0x00
(208/525) Register 0x0258: 0x00
(209/525) Register 0x0259: 0x00
DO NOT STOP THIS PROCESS BY CTRL-C!
(210/525) Register 0x025A: 0x00
(211/525) Register 0x025B: 0x00
(212/525) Register 0x025C: 0x00
(213/525) Register 0x025D: 0xFE != 0x00
(214/525) Register 0x025E: 0x0F != 0x00
(215/525) Register 0x025F: 0x00
(216/525) Register 0x0260: 0x00
(217/525) Register 0x0261: 0x01 != 0x00
(218/525) Register 0x0262: 0x01 != 0x00
(219/525) Register 0x0263: 0x02 != 0x00
DO NOT STOP THIS PROCESS BY CTRL-C!
(220/525) Register 0x0264: 0x02 != 0x00
(221/525) Register 0x0268: 0x00 != 0x05
(222/525) Register 0x0269: 0x00
(223/525) Register 0x026A: 0x00
(224/525) Register 0x026B: 0x00 != 0x35
(225/525) Register 0x026C: 0x00 != 0x33
(226/525) Register 0x026D: 0x00 != 0x34
(227/525) Register 0x026E: 0x00 != 0x35
(228/525) Register 0x026F: 0x00
(229/525) Register 0x0270: 0x00
DO NOT STOP THIS PROCESS BY CTRL-C!
(230/525) Register 0x0271: 0x00
(231/525) Register 0x0272: 0x00
(232/525) Register 0x028A: 0x00
(233/525) Register 0x028B: 0x00
(234/525) Register 0x028C: 0x00
(235/525) Register 0x028D: 0x00
(236/525) Register 0x028E: 0x00
(237/525) Register 0x028F: 0x00
(238/525) Register 0x0290: 0x00
(239/525) Register 0x0291: 0x00
DO NOT STOP THIS PROCESS BY CTRL-C!
(240/525) Register 0x0294: 0x00 != 0x80
(241/525) Register 0x0296: 0x00
(242/525) Register 0x0297: 0x00 != 0x02
(243/525) Register 0x0299: 0x00 != 0x02
(244/525) Register 0x029D: 0x00 != 0x70
(245/525) Register 0x029E: 0x00
(246/525) Register 0x029F: 0x00
(247/525) Register 0x02A9: 0x00 != 0x99
(248/525) Register 0x02AA: 0x00
(249/525) Register 0x02AB: 0x00
DO NOT STOP THIS PROCESS BY CTRL-C!
(250/525) Register 0x02B7: 0x00 != 0xFF
(251/525) Register 0x0302: 0x03 != 0x00
(252/525) Register 0x0303: 0x03 != 0x00
(253/525) Register 0x0304: 0x03 != 0x00
(254/525) Register 0x0305: 0x03 != 0x00
(255/525) Register 0x0306: 0x03 != 0x0E
(256/525) Register 0x0307: 0x05 != 0x00
(257/525) Register 0x0308: 0x05 != 0x00
(258/525) Register 0x0309: 0x05 != 0x00
(259/525) Register 0x030A: 0x05 != 0x00
DO NOT STOP THIS PROCESS BY CTRL-C!
(260/525) Register 0x030B: 0x05 != 0x80
(261/525) Register 0x030C: 0x00
(262/525) Register 0x030D: 0x05 != 0x00
(263/525) Register 0x030E: 0x05 != 0x00
(264/525) Register 0x030F: 0x05 != 0x00
(265/525) Register 0x0310: 0x05 != 0x00
(266/525) Register 0x0311: 0x05 != 0x00
(267/525) Register 0x0312: 0x05 != 0x00
(268/525) Register 0x0313: 0x0F != 0x00
(269/525) Register 0x0314: 0x05 != 0x00
DO NOT STOP THIS PROCESS BY CTRL-C!
(270/525) Register 0x0315: 0x05 != 0x00
(271/525) Register 0x0316: 0x05 != 0x00
(272/525) Register 0x0317: 0x00
(273/525) Register 0x0318: 0x05 != 0x00
(274/525) Register 0x0319: 0x05 != 0x00
(275/525) Register 0x031A: 0x05 != 0x00
(276/525) Register 0x031B: 0x05 != 0x00
(277/525) Register 0x031C: 0x05 != 0x00
(278/525) Register 0x031D: 0x05 != 0x00
(279/525) Register 0x031E: 0x05 != 0x00
DO NOT STOP THIS PROCESS BY CTRL-C!
(280/525) Register 0x031F: 0x80 != 0x00
(281/525) Register 0x0320: 0x05 != 0x00
(282/525) Register 0x0321: 0x2B != 0x00
(283/525) Register 0x0322: 0x00
(284/525) Register 0x0323: 0x00
(285/525) Register 0x0324: 0x00
(286/525) Register 0x0325: 0x00
(287/525) Register 0x0326: 0x00
(288/525) Register 0x0327: 0x03 != 0x00
(289/525) Register 0x0328: 0x03 != 0x00
DO NOT STOP THIS PROCESS BY CTRL-C!
(290/525) Register 0x0329: 0x05 != 0x00
(291/525) Register 0x032A: 0x05 != 0x00
(292/525) Register 0x032B: 0x05 != 0x00
(293/525) Register 0x032C: 0x05 != 0x00
(294/525) Register 0x032D: 0x00
(295/525) Register 0x032E: 0x05 != 0x00
(296/525) Register 0x032F: 0x19 != 0x00
(297/525) Register 0x0330: 0x05 != 0x00
(298/525) Register 0x0331: 0x05 != 0x00
(299/525) Register 0x0332: 0x05 != 0x00
DO NOT STOP THIS PROCESS BY CTRL-C!
(300/525) Register 0x0333: 0x05 != 0x00
(301/525) Register 0x0334: 0x05 != 0x00
(302/525) Register 0x0335: 0x05 != 0x00
(303/525) Register 0x0336: 0x05 != 0x00
(304/525) Register 0x0337: 0x05 != 0x00
(305/525) Register 0x0338: 0x00
(306/525) Register 0x0339: 0x05 != 0x1F
(307/525) Register 0x033B: 0x05 != 0x00
(308/525) Register 0x033C: 0x05 != 0x00
(309/525) Register 0x033D: 0x05 != 0x00
DO NOT STOP THIS PROCESS BY CTRL-C!
(310/525) Register 0x033E: 0x06 != 0x00
(311/525) Register 0x033F: 0x00
(312/525) Register 0x0340: 0x00
(313/525) Register 0x0341: 0x00
(314/525) Register 0x0342: 0x00
(315/525) Register 0x0343: 0x00
(316/525) Register 0x0344: 0x03 != 0x00
(317/525) Register 0x0345: 0x03 != 0x00
(318/525) Register 0x0346: 0x03 != 0x00
(319/525) Register 0x0347: 0x03 != 0x00
DO NOT STOP THIS PROCESS BY CTRL-C!
(320/525) Register 0x0348: 0x03 != 0x00
(321/525) Register 0x0349: 0x03 != 0x00
(322/525) Register 0x034A: 0x03 != 0x00
(323/525) Register 0x034B: 0x03 != 0x00
(324/525) Register 0x034C: 0x03 != 0x00
(325/525) Register 0x034D: 0x03 != 0x00
(326/525) Register 0x034E: 0x03 != 0x00
(327/525) Register 0x034F: 0x03 != 0x00
(328/525) Register 0x0350: 0x03 != 0x00
(329/525) Register 0x0351: 0x03 != 0x00
DO NOT STOP THIS PROCESS BY CTRL-C!
(330/525) Register 0x0352: 0x03 != 0x00
(331/525) Register 0x0353: 0x03 != 0x00
(332/525) Register 0x0354: 0x03 != 0x00
(333/525) Register 0x0355: 0x03 != 0x00
(334/525) Register 0x0356: 0x03 != 0x00
(335/525) Register 0x0357: 0x03 != 0x00
(336/525) Register 0x0358: 0x03 != 0x00
(337/525) Register 0x0359: 0x03 != 0x00
(338/525) Register 0x035A: 0x03 != 0x00
(339/525) Register 0x035B: 0x03 != 0x00
DO NOT STOP THIS PROCESS BY CTRL-C!
(340/525) Register 0x035C: 0x03 != 0x00
(341/525) Register 0x035D: 0x03 != 0x00
(342/525) Register 0x035E: 0x03 != 0x00
(343/525) Register 0x035F: 0x03 != 0x00
(344/525) Register 0x0360: 0x03 != 0x00
(345/525) Register 0x0361: 0x03 != 0x00
(346/525) Register 0x0362: 0x00
(347/525) Register 0x0487: 0xC0 != 0x03
(348/525) Register 0x0508: 0x03 != 0x14
(349/525) Register 0x0509: 0x03 != 0x29
DO NOT STOP THIS PROCESS BY CTRL-C!
(350/525) Register 0x050A: 0x03 != 0x06
(351/525) Register 0x050B: 0x03 != 0x05
(352/525) Register 0x050C: 0x00 != 0x3F
(353/525) Register 0x050D: 0x03 != 0x0F
(354/525) Register 0x050E: 0x03 != 0x14
(355/525) Register 0x050F: 0x03 != 0x2B
(356/525) Register 0x0510: 0x03 != 0x06
(357/525) Register 0x0511: 0x03 != 0x05
(358/525) Register 0x0512: 0x03 != 0x3F
(359/525) Register 0x0513: 0x03 != 0x0F
DO NOT STOP THIS PROCESS BY CTRL-C!
(360/525) Register 0x0515: 0x03 != 0x00
(361/525) Register 0x0516: 0x03 != 0x00
(362/525) Register 0x0517: 0x00
(363/525) Register 0x0518: 0x03 != 0x00
(364/525) Register 0x0519: 0x03 != 0x48
(365/525) Register 0x051A: 0x03
(366/525) Register 0x051B: 0x03 != 0x00
(367/525) Register 0x051C: 0x03 != 0x00
(368/525) Register 0x051D: 0x03 != 0x00
(369/525) Register 0x051E: 0x03 != 0x00
DO NOT STOP THIS PROCESS BY CTRL-C!
(370/525) Register 0x051F: 0x03 != 0x80
(371/525) Register 0x0521: 0x03 != 0x2B
(372/525) Register 0x052A: 0x03
(373/525) Register 0x052B: 0x03 != 0x01
(374/525) Register 0x052C: 0x03 != 0x87
(375/525) Register 0x052D: 0x00 != 0x03
(376/525) Register 0x052E: 0x03 != 0x19
(377/525) Register 0x052F: 0x03 != 0x19
(378/525) Register 0x0531: 0x03 != 0x00
(379/525) Register 0x0532: 0x03 != 0x10
DO NOT STOP THIS PROCESS BY CTRL-C!
(380/525) Register 0x0533: 0x03 != 0x04
(381/525) Register 0x0534: 0x03 != 0x00
(382/525) Register 0x0535: 0x03 != 0x00
(383/525) Register 0x0536: 0x03 != 0x00
(384/525) Register 0x0537: 0x03 != 0x00
(385/525) Register 0x0538: 0x00
(386/525) Register 0x0539: 0x05 != 0x00
(387/525) Register 0x053A: 0x03 != 0x02
(388/525) Register 0x053B: 0x03
(389/525) Register 0x053C: 0x03 != 0x00
DO NOT STOP THIS PROCESS BY CTRL-C!
(390/525) Register 0x053D: 0x03 != 0x0B
(391/525) Register 0x053E: 0x03 != 0x06
(392/525) Register 0x0589: 0xA0 != 0x0E
(393/525) Register 0x058A: 0xA0 != 0x00
(394/525) Register 0x059B: 0x00 != 0xF8
(395/525) Register 0x059D: 0x00 != 0x14
(396/525) Register 0x059E: 0x00 != 0x2B
(397/525) Register 0x059F: 0x00 != 0x06
(398/525) Register 0x05A0: 0x00 != 0x05
(399/525) Register 0x05A1: 0x00 != 0x3F
DO NOT STOP THIS PROCESS BY CTRL-C!
(400/525) Register 0x05A2: 0x00 != 0x0F
(401/525) Register 0x05A6: 0x00 != 0x03
(402/525) Register 0x0802: 0x08 != 0x35
(403/525) Register 0x0803: 0x08 != 0x05
(404/525) Register 0x0804: 0x08 != 0x00
(405/525) Register 0x0805: 0x08 != 0x00
(406/525) Register 0x0806: 0x08 != 0x00
(407/525) Register 0x0807: 0x08 != 0x00
(408/525) Register 0x0808: 0x08 != 0x00
(409/525) Register 0x0809: 0x08 != 0x00
DO NOT STOP THIS PROCESS BY CTRL-C!
(410/525) Register 0x080A: 0x08 != 0x00
(411/525) Register 0x080B: 0x08 != 0x00
(412/525) Register 0x080C: 0x08 != 0x00
(413/525) Register 0x080D: 0x09 != 0x00
(414/525) Register 0x080E: 0x02 != 0x00
(415/525) Register 0x080F: 0x00
(416/525) Register 0x0810: 0x00
(417/525) Register 0x0811: 0x00
(418/525) Register 0x0812: 0x00
(419/525) Register 0x0813: 0x00
DO NOT STOP THIS PROCESS BY CTRL-C!
(420/525) Register 0x0814: 0x08 != 0x00
(421/525) Register 0x0815: 0x08 != 0x00
(422/525) Register 0x0816: 0x08 != 0x00
(423/525) Register 0x0817: 0x08 != 0x00
(424/525) Register 0x0818: 0x08 != 0x00
(425/525) Register 0x0819: 0x08 != 0x00
(426/525) Register 0x081A: 0x08 != 0x00
(427/525) Register 0x081B: 0x08 != 0x00
(428/525) Register 0x081C: 0x08 != 0x00
(429/525) Register 0x081D: 0x08 != 0x00
DO NOT STOP THIS PROCESS BY CTRL-C!
(430/525) Register 0x081E: 0x08 != 0x00
(431/525) Register 0x081F: 0x08 != 0x00
(432/525) Register 0x0820: 0x08 != 0x00
(433/525) Register 0x0821: 0x08 != 0x00
(434/525) Register 0x0822: 0x08 != 0x00
(435/525) Register 0x0823: 0x08 != 0x00
(436/525) Register 0x0824: 0x08 != 0x00
(437/525) Register 0x0825: 0x08 != 0x00
(438/525) Register 0x0826: 0x08 != 0x00
(439/525) Register 0x0827: 0x08 != 0x00
DO NOT STOP THIS PROCESS BY CTRL-C!
(440/525) Register 0x0828: 0x08 != 0x00
(441/525) Register 0x0829: 0x08 != 0x00
(442/525) Register 0x082A: 0x08 != 0x00
(443/525) Register 0x082B: 0x08 != 0x00
(444/525) Register 0x082C: 0x08 != 0x00
(445/525) Register 0x082D: 0x08 != 0x00
(446/525) Register 0x082E: 0x08 != 0x00
(447/525) Register 0x082F: 0x08 != 0x00
(448/525) Register 0x0830: 0x08 != 0x00
(449/525) Register 0x0831: 0x08 != 0x00
DO NOT STOP THIS PROCESS BY CTRL-C!
(450/525) Register 0x0832: 0x08 != 0x00
(451/525) Register 0x0833: 0x08 != 0x00
(452/525) Register 0x0834: 0x08 != 0x00
(453/525) Register 0x0835: 0x08 != 0x00
(454/525) Register 0x0836: 0x08 != 0x00
(455/525) Register 0x0837: 0x08 != 0x00
(456/525) Register 0x0838: 0x08 != 0x00
(457/525) Register 0x0839: 0x08 != 0x00
(458/525) Register 0x083A: 0x08 != 0x00
(459/525) Register 0x083B: 0x08 != 0x00
DO NOT STOP THIS PROCESS BY CTRL-C!
(460/525) Register 0x083C: 0x08 != 0x00
(461/525) Register 0x083D: 0x08 != 0x00
(462/525) Register 0x083E: 0x08 != 0x00
(463/525) Register 0x083F: 0x08 != 0x00
(464/525) Register 0x0840: 0x08 != 0x00
(465/525) Register 0x0841: 0x08 != 0x00
(466/525) Register 0x0842: 0x09 != 0x00
(467/525) Register 0x0843: 0x00
(468/525) Register 0x0844: 0x00
(469/525) Register 0x0845: 0x00
DO NOT STOP THIS PROCESS BY CTRL-C!
(470/525) Register 0x0846: 0x00
(471/525) Register 0x0847: 0x00
(472/525) Register 0x0848: 0x09 != 0x00
(473/525) Register 0x0849: 0x09 != 0x00
(474/525) Register 0x084A: 0x0A != 0x00
(475/525) Register 0x084B: 0x00
(476/525) Register 0x084C: 0x00
(477/525) Register 0x084D: 0x09 != 0x00
(478/525) Register 0x084E: 0x09 != 0x00
(479/525) Register 0x084F: 0x02 != 0x00
DO NOT STOP THIS PROCESS BY CTRL-C!
(480/525) Register 0x0850: 0x00
(481/525) Register 0x0851: 0x00
(482/525) Register 0x0852: 0x00
(483/525) Register 0x0853: 0x00
(484/525) Register 0x0854: 0x00
(485/525) Register 0x0855: 0x08 != 0x00
(486/525) Register 0x0856: 0x08 != 0x00
(487/525) Register 0x0857: 0x08 != 0x00
(488/525) Register 0x0858: 0x08 != 0x00
(489/525) Register 0x0859: 0x08 != 0x00
DO NOT STOP THIS PROCESS BY CTRL-C!
(490/525) Register 0x085A: 0x08 != 0x00
(491/525) Register 0x085B: 0x08 != 0x00
(492/525) Register 0x085C: 0x08 != 0x00
(493/525) Register 0x085D: 0x09 != 0x00
(494/525) Register 0x085E: 0x00
(495/525) Register 0x085F: 0x00
(496/525) Register 0x0860: 0x00
(497/525) Register 0x0861: 0x00
(498/525) Register 0x090E: 0x08 != 0x02
(499/525) Register 0x0943: 0x08 != 0x00
DO NOT STOP THIS PROCESS BY CTRL-C!
(500/525) Register 0x0949: 0x08 != 0x0A
(501/525) Register 0x094A: 0x08 != 0x0A
(502/525) Register 0x094E: 0x08 != 0x49
(503/525) Register 0x094F: 0x08 != 0x02
(504/525) Register 0x095E: 0x08 != 0x00
(505/525) Register 0x0A02: 0x0A != 0x00
(506/525) Register 0x0A03: 0x0A != 0x01
(507/525) Register 0x0A04: 0x0A != 0x01
(508/525) Register 0x0A05: 0x01
(509/525) Register 0x0A14: 0x00
DO NOT STOP THIS PROCESS BY CTRL-C!
(510/525) Register 0x0A1A: 0x00
(511/525) Register 0x0A20: 0x00
(512/525) Register 0x0A26: 0x00
(513/525) Register 0x0A2C: 0x08 != 0x00
(514/525) Register 0x0B44: 0x00 != 0x2F
(515/525) Register 0x0B46: 0x00
(516/525) Register 0x0B47: 0x00 != 0x05
(517/525) Register 0x0B48: 0x00 != 0x05
(518/525) Register 0x0B4A: 0x00 != 0x1E
(519/525) Register 0x0B57: 0x00 != 0x0E
DO NOT STOP THIS PROCESS BY CTRL-C!
(520/525) Register 0x0B58: 0x00 != 0x01
(521/525) Register 0x0514: 0x00 != 0x01
(522/525) Register 0x001C: 0x00 != 0x01
(523/525) Register 0x0540: 0x00
(524/525) Register 0x0B24: 0x0B != 0xC3
(525/525) Register 0x0B25: 0x0A != 0x02
RESULT: I2C READ SUCCESSFULLY DONE.

[0;33m(sl-xu5-eth0-01)[0m si5345 [0;33m#[0m ./si5345 --read-all --address=0x00021[C[C[C[C[C[C[C[C[C[C[C[C[C[C[C[C[C[C[C[C[C[C[C[C[C[C[15Pi2cdump -y 4 0x68./si5345 --postamble && ./si5345 --skip-13 && ./si5345 --write --address=0x2c --data=0xx0a && ./si5345 --preamble[A[C[C[C[C[C[C[C[C[C[C[C[C[C[C[C[C[C[C[C[C[C[C[C[C[C[C[C[C[C[C[C[C[C[C[C[C[C[C[C[C[C[C[C[C[C[C[C[C[C[C[C[C[C[C[C[C[C[C[C[C[C[C[C[C[C[C[C[C[C[C[C[C[C[C[C[C[C[C[C[C[C[C[C[C[C[C[C[C[C[C[C[C[C[C[C[C[C[C[C[C[C[C[C[C[C[C[C[C[C[C[C[C[C[C[C[C
[C[C[C[1P[1P[1P[A[C[C[C[C[C[C[C[C[C[C[C[C[C[C[C[C[C[C[C[C[C[C[C[C[C[C[C[C[C[C[C[C[C[C[C[C[C[C[C[C[C[C[C[C[C[C[C[C[C[C[C[C[C[C[C[C[C[C[C[C[C[C[C[C[C[C[C[C[C[C[C[C[C[C[C[C[C[C[C[C[C[C[C[C[C[C[C[C[C[C[C[C[C[C[C[C[C[C[C[C[C[C[C[C[C[C[C[C[C[C[C &[C[1P[A[0;33m(sl-xu5-eth0-01)[0m si5345 [0;33m#[0m [C[C[C[C[C[C[C[C[C[C[C[C[C[C[C[C[C[C[C[C[C[C[C[C[C[C[C[C[C[C[C[C[C[C[C[C[C[C[C[C[C[C[C[C[C[C[C[C[C[C[C[C[C[C[C[C[C[C[C[C[C[C[C[C[C[C[C[C[C[C[C[C[C[C[C[C[C[C[C[C[C[C[C[C[C &&[1P[A[0;33m(sl-xu5-eth0-01)[0m si5345 [0;33m#[0m [C[C[C[C[C[C[C[C[C[C[C[C[C[C[C[C[C[C[C[C[C[C[C[C[C[C[C[C[C[C[C[C[C[C[C[C[C[C[C[C[C[C[C[C[C[C[C[C[C[C[C[C[C[C[C[C[C[C[C[C[C[C[C[C[C[C[C[C[C[C[C[C[C[C[C[C[C[C[C[C[C[C[C[C && [1P[A[0;33m(sl-xu5-eth0-01)[0m si5345 [0;33m#[0m [C[C[C[C[C[C[C[C[C[C[C[C[C[C[C[C[C[C[C[C[C[C[C[C[C[C[C[C[C[C[C[C[C[C[C[C[C[C[C[C[C[C[C[C[C[C[C[C[C[C[C[C[C[C[C[C[C[C[C[C[C[C[C[C[C[C[C[C[C[C[C[C[C[C[C[C[C[C[C[C[C[C[C && .[1P[A[0;33m(sl-xu5-eth0-01)[0m si5345 [0;33m#[0m [C[C[C[C[C[C[C[C[C[C[C[C[C[C[C[C[C[C[C[C[C[C[C[C[C[C[C[C[C[C[C[C[C[C[C[C[C[C[C[C[C[C[C[C[C[C[C[C[C[C[C[C[C[C[C[C[C[C[C[C[C[C[C[C[C[C[C[C[C[C[C[C[C[C[C[C[C[C[C[C[C[C && ./[1P[A[0;33m(sl-xu5-eth0-01)[0m si5345 [0;33m#[0m [C[C[C[C[C[C[C[C[C[C[C[C[C[C[C[C[C[C[C[C[C[C[C[C[C[C[C[C[C[C[C[C[C[C[C[C[C[C[C[C[C[C[C[C[C[C[C[C[C[C[C[C[C[C[C[C[C[C[C[C[C[C[C[C[C[C[C[C[C[C[C[C[C[C[C[C[C[C[C[C[C && ./s[1P[A[0;33m(sl-xu5-eth0-01)[0m si5345 [0;33m#[0m [C[C[C[C[C[C[C[C[C[C[C[C[C[C[C[C[C[C[C[C[C[C[C[C[C[C[C[C[C[C[C[C[C[C[C[C[C[C[C[C[C[C[C[C[C[C[C[C[C[C[C[C[C[C[C[C[C[C[C[C[C[C[C[C[C[C[C[C[C[C[C[C[C[C[C[C[C[C[C[C && ./si[1P[A[0;33m(sl-xu5-eth0-01)[0m si5345 [0;33m#[0m [C[C[C[C[C[C[C[C[C[C[C[C[C[C[C[C[C[C[C[C[C[C[C[C[C[C[C[C[C[C[C[C[C[C[C[C[C[C[C[C[C[C[C[C[C[C[C[C[C[C[C[C[C[C[C[C[C[C[C[C[C[C[C[C[C[C[C[C[C[C[C[C[C[C[C[C[C[C[C && ./si5[1P[A[0;33m(sl-xu5-eth0-01)[0m si5345 [0;33m#[0m [C[C[C[C[C[C[C[C[C[C[C[C[C[C[C[C[C[C[C[C[C[C[C[C[C[C[C[C[C[C[C[C[C[C[C[C[C[C[C[C[C[C[C[C[C[C[C[C[C[C[C[C[C[C[C[C[C[C[C[C[C[C[C[C[C[C[C[C[C[C[C[C[C[C[C[C[C[C&& ./si53[1P[A[0;33m(sl-xu5-eth0-01)[0m si5345 [0;33m#[0m [C[C[C[C[C[C[C[C[C[C[C[C[C[C[C[C[C[C[C[C[C[C[C[C[C[C[C[C[C[C[C[C[C[C[C[C[C[C[C[C[C[C[C[C[C[C[C[C[C[C[C[C[C[C[C[C[C[C[C[C[C[C[C[C[C[C[C[C[C[C[C[C[C[C[C[C[C && ./si534[1P[A[0;33m(sl-xu5-eth0-01)[0m si5345 [0;33m#[0m [C[C[C[C[C[C[C[C[C[C[C[C[C[C[C[C[C[C[C[C[C[C[C[C[C[C[C[C[C[C[C[C[C[C[C[C[C[C[C[C[C[C[C[C[C[C[C[C[C[C[C[C[C[C[C[C[C[C[C[C[C[C[C[C[C[C[C[C[C[C[C[C[C[C[C[C && ./si5345[1P --preamble[A[0;33m(sl-xu5-eth0-01)[0m si5345 [0;33m#[0m [C[C[C[C[C[C[C[C[C[C[C[C[C[C[C[C[C[C[C[C[C[C[C[C[C[C[C[C[C[C[C[C[C[C[C[C[C[C[C[C[C[C[C[C[C[C[C[C[C[C[C[C[C[C[C[C[C[C[C[C[C[C[C[C[C[C[C[C[C[C[C[C[C[C[C && ./si5345 [1P--preamble[A[0;33m(sl-xu5-eth0-01)[0m si5345 [0;33m#[0m [C[C[C[C[C[C[C[C[C[C[C[C[C[C[C[C[C[C[C[C[C[C[C[C[C[C[C[C[C[C[C[C[C[C[C[C[C[C[C[C[C[C[C[C[C[C[C[C[C[C[C[C[C[C[C[C[C[C[C[C[C[C[C[C[C[C[C[C[C[C[C[C[C[C && ./si5345 -[C[1Ppreamble[A[0;33m(sl-xu5-eth0-01)[0m si5345 [0;33m#[0m [C[C[C[C[C[C[C[C[C[C[C[C[C[C[C[C[C[C[C[C[C[C[C[C[C[C[C[C[C[C[C[C[C[C[C[C[C[C[C[C[C[C[C[C[C[C[C[C[C[C[C[C[C[C[C[C[C[C[C[C[C[C[C[C[C[C[C[C[C[C[C[C[C && ./si5345 --[1Ppreamble[A[0;33m(sl-xu5-eth0-01)[0m si5345 [0;33m#[0m [C[C[C[C[C[C[C[C[C[C[C[C[C[C[C[C[C[C[C[C[C[C[C[C[C[C[C[C[C[C[C[C[C[C[C[C[C[C[C[C[C[C[C[C[C[C[C[C[C[C[C[C[C[C[C[C[C[C[C[C[C[C[C[C[C[C[C[C[C[C[C[C && ./si5345 --p[1Preamble[A[0;33m(sl-xu5-eth0-01)[0m si5345 [0;33m#[0m [C[C[C[C[C[C[C[C[C[C[C[C[C[C[C[C[C[C[C[C[C[C[C[C[C[C[C[C[C[C[C[C[C[C[C[C[C[C[C[C[C[C[C[C[C[C[C[C[C[C[C[C[C[C[C[C[C[C[C[C[C[C[C[C[C[C[C[C[C[C[C && ./si5345 --pr[1Peamble[A[0;33m(sl-xu5-eth0-01)[0m si5345 [0;33m#[0m [C[C[C[C[C[C[C[C[C[C[C[C[C[C[C[C[C[C[C[C[C[C[C[C[C[C[C[C[C[C[C[C[C[C[C[C[C[C[C[C[C[C[C[C[C[C[C[C[C[C[C[C[C[C[C[C[C[C[C[C[C[C[C[C[C[C[C[C[C[C && ./si5345 --pre[1Pamble[A[0;33m(sl-xu5-eth0-01)[0m si5345 [0;33m#[0m [C[C[C[C[C[C[C[C[C[C[C[C[C[C[C[C[C[C[C[C[C[C[C[C[C[C[C[C[C[C[C[C[C[C[C[C[C[C[C[C[C[C[C[C[C[C[C[C[C[C[C[C[C[C[C[C[C[C[C[C[C[C[C[C[C[C[C[C[C && ./si5345 --prea[1Pmble[A[0;33m(sl-xu5-eth0-01)[0m si5345 [0;33m#[0m [C[C[C[C[C[C[C[C[C[C[C[C[C[C[C[C[C[C[C[C[C[C[C[C[C[C[C[C[C[C[C[C[C[C[C[C[C[C[C[C[C[C[C[C[C[C[C[C[C[C[C[C[C[C[C[C[C[C[C[C[C[C[C[C[C[C[C[C && ./si5345 --pream[1Pble[A[0;33m(sl-xu5-eth0-01)[0m si5345 [0;33m#[0m [C[C[C[C[C[C[C[C[C[C[C[C[C[C[C[C[C[C[C[C[C[C[C[C[C[C[C[C[C[C[C[C[C[C[C[C[C[C[C[C[C[C[C[C[C[C[C[C[C[C[C[C[C[C[C[C[C[C[C[C[C[C[C[C[C[C[C && ./si5345 --preamb[1Ple[A[0;33m(sl-xu5-eth0-01)[0m si5345 [0;33m#[0m [C[C[C[C[C[C[C[C[C[C[C[C[C[C[C[C[C[C[C[C[C[C[C[C[C[C[C[C[C[C[C[C[C[C[C[C[C[C[C[C[C[C[C[C[C[C[C[C[C[C[C[C[C[C[C[C[C[C[C[C[C[C[C[C[C[C && ./si5345 --preambl[1Pe[A[0;33m(sl-xu5-eth0-01)[0m si5345 [0;33m#[0m [C[C[C[C[C[C[C[C[C[C[C[C[C[C[C[C[C[C[C[C[C[C[C[C[C[C[C[C[C[C[C[C[C[C[C[C[C[C[C[C[C[C[C[C[C[C[C[C[C[C[C[C[C[C[C[C[C[C[C[C[C[C[C[C[C && ./si5345 --preamble[K[A[0;33m(sl-xu5-eth0-01)[0m si5345 [0;33m#[0m [C[C[C[C[C[C[C[C[C[C[C[C[C[C[C[C[C[C[C[C[C[C[C[C[C[C[C[C[C[C[C[C[C[C[C[C[C[C[C[C[C[C[C[C[C[C[C[C[C[C[C[C[C[C[C[C[C[C[C[C[C[C[C[C && ./si5345 --preamble [K[A[C[C[C[C[C[C[C[C[C[C[C[C[C[C[C[C[C[C[C[C[C[C[C[C[C[C[C[C[C[C[C[C[C[C[C[C[C[C[C[C[C[C[C[C[C[C[C[C[C[C[C[C[C[C[C[C[C[C[C[C[C[C[C[C[C[C[C[C[C[C[C[C[C[C[C[C[C[C[C[C[C[C[C[C[C[C[C[C[C[1P
[K[A[C[C[C[C[C[C[C[C[C[C[C[C[C[C[C[C[C[C[C[C[C[C[C[C[C[C[C[C[C[C[C[C[C[C[C[C[C[C[C[C[C[C[C[C[C[C[C[C[C[C[C[C[C[C[C[C[C[C[C[C[C[C[C[C[C[C[C[C[C[C[C[C[C[C[C[C[C[C[C[C[C[C[C[C[C[C[C[C[1P[1P[1P[1P[1P[1P[1P[1P[1P[1P[1P[1P[1P[1P[1P[1P[1P[1P[1P[1@\[1P
Register 0x0514: 0x01 written
Register 0x001C: 0x01 written
Register 0x0540: 0x00 written
Register 0x0B24: 0xC3 written
Register 0x0B25: 0x02 written
This process takes time (ETA: 0.09 min).
You can't stop it by ctrl-c, because it may break your system.
Do you want to proceed? [y/n]
y
(003/525) Register 0x0006: 0x00 written
(004/525) Register 0x0007: 0x00 written
(005/525) Register 0x0008: 0x00 written
(006/525) Register 0x000B: 0x68 written
(007/525) Register 0x0016: 0x02 written
(008/525) Register 0x0017: 0xDC written
(009/525) Register 0x0018: 0xD5 written
DO NOT STOP THIS PROCESS BY CTRL-C!
(010/525) Register 0x0019: 0xDD written
(011/525) Register 0x001A: 0xDF written
(012/525) Register 0x002B: 0x02 written
(014/525) Register 0x002D: 0x44 written
(015/525) Register 0x002E: 0x00 written
(016/525) Register 0x002F: 0x00 written
(017/525) Register 0x0030: 0x44 written
(018/525) Register 0x0031: 0x00 written
(019/525) Register 0x0032: 0x00 written
DO NOT STOP THIS PROCESS BY CTRL-C!
(020/525) Register 0x0033: 0x00 written
(021/525) Register 0x0034: 0x44 written
(022/525) Register 0x0035: 0x00 written
(023/525) Register 0x0036: 0x00 written
(024/525) Register 0x0037: 0x00 written
(025/525) Register 0x0038: 0x44 written
(026/525) Register 0x0039: 0x00 written
(027/525) Register 0x003A: 0x00 written
(028/525) Register 0x003B: 0x00 written
(029/525) Register 0x003C: 0x44 written
DO NOT STOP THIS PROCESS BY CTRL-C!
(030/525) Register 0x003D: 0x00 written
(031/525) Register 0x003F: 0x22 written
(032/525) Register 0x0040: 0x04 written
(033/525) Register 0x0041: 0x00 written
(034/525) Register 0x0042: 0x0C written
(035/525) Register 0x0043: 0x00 written
(036/525) Register 0x0044: 0x0C written
(037/525) Register 0x0045: 0x0C written
(038/525) Register 0x0046: 0x00 written
(039/525) Register 0x0047: 0x32 written
DO NOT STOP THIS PROCESS BY CTRL-C!
(040/525) Register 0x0048: 0x00 written
(041/525) Register 0x0049: 0x00 written
(042/525) Register 0x004A: 0x00 written
(043/525) Register 0x004B: 0x32 written
(044/525) Register 0x004C: 0x00 written
(045/525) Register 0x004D: 0x00 written
(046/525) Register 0x004E: 0x50 written
