スクリプトは 2021年11月18日 16時07分35秒
 に開始しました[?1034h[0;33m(sl-xu5-eth0-01)[0m ~ [0;33m#[0m i2cdump -y 4 0x68
No size specified (using byte-data access)
     0  1  2  3  4  5  6  7  8  9  a  b  c  d  e  f    0123456789abcdef
00: 05 00 45 53 01 03 10 07 04 00 00 68 c9 00 0f ff    ?.ES?????..h?.?.
10: 00 df ff 2f ff 03 02 dc ff dd df f6 00 00 00 00    .?./.???.???....
20: 00 0f 00 fe 0b 00 00 00 00 00 00 02 00 00 00 00    .?.??......?....
30: 00 00 00 00 00 00 00 00 00 00 00 00 00 00 00 00    ................
40: 04 00 00 00 00 0c 00 00 00 00 00 00 00 00 00 00    ?....?..........
50: 0f 00 00 00 00 00 00 00 00 00 00 00 00 00 00 00    ?...............
60: 00 00 00 00 00 00 00 00 00 00 00 00 00 00 00 00    ................
70: 00 00 00 00 00 00 00 00 00 00 00 00 00 00 00 00    ................
80: 00 00 00 00 00 00 00 00 00 00 00 00 00 00 00 00    ................
90: 00 00 00 00 00 00 00 00 00 00 00 00 00 00 00 00    ................
a0: 00 00 00 00 00 00 00 00 00 00 00 00 00 00 00 00    ................
b0: 00 00 00 00 00 00 00 01 00 26 24 88 34 00 00 00    .......?.&$?4...
c0: 00 00 00 00 00 00 00 00 00 00 00 00 00 00 00 00    ................
d0: 00 00 00 00 00 00 00 00 00 00 00 00 00 00 00 00    ................
e0: 00 00 03 00 00 01 00 00 00 00 00 00 00 00 00 00    ..?..?..........
f0: 00 00 00 00 00 00 0d 03 00 22 20 00 00 00 0f 00    ......??." ...?.

[0;33m(sl-xu5-eth0-01)[0m ~ [0;33m#[0m [K[0;33m(sl-xu5-eth0-01)[0m ~ [0;33m#[0m [K[0;33m(sl-xu5-eth0-01)[0m ~ [0;33m#[0m i2cdump -y 4 0x68
No size specified (using byte-data access)
     0  1  2  3  4  5  6  7  8  9  a  b  c  d  e  f    0123456789abcdef
00: 05 00 45 53 01 03 10 07 04 00 00 68 c9 00 0f ff    ?.ES?????..h?.?.
10: 00 df ff 2f ff 03 02 dc ff dd df f6 00 00 00 00    .?./.???.???....
20: 00 0f 00 fe 0b 00 00 00 00 00 00 02 00 00 00 00    .?.??......?....
30: 00 00 00 00 00 00 00 00 00 00 00 00 00 00 00 00    ................
40: 04 00 00 00 00 0c 00 00 00 00 00 00 00 00 00 00    ?....?..........
50: 0f 00 00 00 00 00 00 00 00 00 00 00 00 00 00 00    ?...............
60: 00 00 00 00 00 00 00 00 00 00 00 00 00 00 00 00    ................
70: 00 00 00 00 00 00 00 00 00 00 00 00 00 00 00 00    ................
80: 00 00 00 00 00 00 00 00 00 00 00 00 00 00 00 00    ................
90: 00 00 00 00 00 00 00 00 00 00 00 00 00 00 00 00    ................
a0: 00 00 00 00 00 00 00 00 00 00 00 00 00 00 00 00    ................
b0: 00 00 00 00 00 00 00 01 00 cd 2b e6 01 00 00 00    .......?.?+??...
c0: 00 00 00 00 00 00 00 00 00 00 00 00 00 00 00 00    ................
d0: 00 00 00 00 00 00 00 00 00 00 00 00 00 00 00 00    ................
e0: 00 00 03 00 00 01 00 00 00 00 00 00 00 00 00 00    ..?..?..........
f0: 00 00 00 00 00 00 0d 03 00 22 20 00 00 00 0f 00    ......??." ...?.

[0;33m(sl-xu5-eth0-01)[0m ~ [0;33m#[0m i2cdump -y 4 0x68[11Prebooti2cdump -y 4 0x68[Kcd apps/si5345/
/root/apps/si5345

[0;33m(sl-xu5-eth0-01)[0m si5345 [0;33m#[0m ls
合計 104K
-rw-r--r-- 1 root root  49K 11月 17 22:11 Si5345-RevD-5345.okazaki-Registers.h
-rw-r--r-- 1 root root 7.4K 11月 17 22:11 Si5345-RevD-5345.okazaki-Registers.csv
-rw-r--r-- 1 root root  138 11月 17 22:11 Makefile
-rwxr-xr-x 1 root root  75K 11月 18 16:03 si5345*
-rw-r--r-- 1 root root 9.3K 11月 18 16:13 si5345.c

[0;33m(sl-xu5-eth0-01)[0m si5345 [0;33m#[0m make
gcc -std=c99 -Wall -g -O0 si5345.c -o si5345

[0;33m(sl-xu5-eth0-01)[0m si5345 [0;33m#[0m ./si5345 --write-all
This process takes time (ETA: 17.53 min).
You can't stop it by ctrl-c, because it may break your system.
Do you want to proceed? [y/n]
y
DO NOT STOP THIS PROCESS BY CTRL-C!
(000/525) Register 0x0B24: 0xC0 written
(001/525) Register 0x0B25: 0x00 written
(002/525) Register 0x0540: 0x01 written
(003/525) Register 0x0006: 0x00 written
(004/525) Register 0x0007: 0x00 written
(005/525) Register 0x0008: 0x00 written
(006/525) Register 0x000B: 0x68 written
(007/525) Register 0x0016